! Infineon Technologies  Discrete & RF Semiconductors
! BAT24-02LS
! Si Schottky Diode in TSSLP-2
! VR = 2 V     
! S-Parameters:                                        July  2007
# GHz  S  MA  R  50
!  f          S11
! GHz     MAG     ANG
 0.050  0.99904   -0.3  
 0.100  0.99999   -0.5  
 0.150  0.99999   -0.8  
 0.200  0.99999   -1.0  
 0.250  0.99999   -1.3  
 0.300  0.99999   -1.6  
 0.350  0.99999   -1.8  
 0.400  0.99999   -2.1  
 0.450  0.99999   -2.3  
 0.500  0.99999   -2.6  
 0.550  0.99999   -2.9  
 0.600  0.99999   -3.1  
 0.650  0.99999   -3.4  
 0.700  0.99979   -3.7  
 0.750  0.99999   -3.9  
 0.800  0.99999   -4.2  
 0.850  0.99999   -4.4  
 0.900  0.99999   -4.7  
 0.950  0.99999   -4.9  
 1.000  0.99999   -5.2  
 1.050  0.99989   -5.5  
 1.100  0.99982   -5.7  
 1.150  0.99972   -6.0  
 1.200  0.99887   -6.3  
 1.250  0.99872   -6.5  
 1.300  0.99829   -6.8  
 1.350  0.99787   -7.0  
 1.400  0.99686   -7.3  
 1.450  0.99652   -7.5  
 1.500  0.99682   -7.7  
 1.550  0.99695   -8.0  
 1.600  0.99570   -8.2  
 1.650  0.99660   -8.4  
 1.700  0.99726   -8.7  
 1.750  0.99744   -9.0  
 1.800  0.99599   -9.2  
 1.850  0.99813   -9.4  
 1.900  0.99792   -9.7  
 1.950  0.99782  -10.0  
 2.000  0.99729  -10.2  
 2.050  0.99747  -10.5  
 2.100  0.99769  -10.7  
 2.150  0.99770  -11.0  
 2.200  0.99769  -11.3  
 2.250  0.99763  -11.5  
 2.300  0.99743  -11.8  
 2.350  0.99736  -12.0  
 2.400  0.99724  -12.3  
 2.450  0.99729  -12.5  
 2.500  0.99739  -12.8  
 2.550  0.99727  -13.0  
 2.600  0.99726  -13.3  
 2.650  0.99730  -13.5  
 2.700  0.99726  -13.8  
 2.750  0.99723  -14.0  
 2.800  0.99715  -14.3  
 2.850  0.99702  -14.6  
 2.900  0.99656  -14.8  
 2.950  0.99632  -15.1  
 3.000  0.99656  -15.3  
 3.050  0.99664  -15.6  
 3.100  0.99697  -15.8  
 3.150  0.99653  -16.1  
 3.200  0.99690  -16.3  
 3.250  0.99680  -16.6  
 3.300  0.99686  -16.9  
 3.350  0.99707  -17.2  
 3.400  0.99692  -17.4  
 3.450  0.99696  -17.7  
 3.500  0.99697  -18.0  
 3.550  0.99642  -18.3  
 3.600  0.99615  -18.5  
 3.650  0.99605  -18.8  
 3.700  0.99558  -19.0  
 3.750  0.99559  -19.3  
 3.800  0.99538  -19.6  
 3.850  0.99492  -19.9  
 3.900  0.99479  -20.1  
 3.950  0.99402  -20.4  
 4.000  0.99354  -20.6  
 4.050  0.99333  -20.9  
 4.100  0.99270  -21.2  
 4.150  0.99223  -21.4  
 4.200  0.99160  -21.7  
 4.250  0.99149  -21.9  
 4.300  0.99115  -22.1  
 4.350  0.99108  -22.4  
 4.400  0.99100  -22.6  
 4.450  0.99027  -22.9  
 4.500  0.99055  -23.2  
 4.550  0.99014  -23.4  
 4.600  0.99029  -23.7  
 4.650  0.98994  -23.9  
 4.700  0.99022  -24.1  
 4.750  0.99005  -24.4  
 4.800  0.99020  -24.7  
 4.850  0.98995  -24.9  
 4.900  0.98933  -25.2  
 4.950  0.98929  -25.5  
 5.000  0.98839  -25.8  
 5.050  0.98772  -26.0  
 5.100  0.98703  -26.3  
 5.150  0.98682  -26.5  
 5.200  0.98598  -26.7  
 5.250  0.98587  -27.0  
 5.300  0.98564  -27.2  
 5.350  0.98514  -27.5  
 5.400  0.98552  -27.7  
 5.450  0.98491  -27.9  
 5.500  0.98473  -28.2  
 5.550  0.98461  -28.4  
 5.600  0.98456  -28.6  
 5.650  0.98453  -28.9  
 5.700  0.98459  -29.2  
 5.750  0.98632  -29.4  
 5.800  0.98374  -29.7  
 5.850  0.98396  -29.9  
 5.900  0.98399  -30.1  
 5.950  0.98370  -30.4  
 6.000  0.98363  -30.6  
 6.050  0.98345  -30.9  
 6.100  0.98333  -31.1  
 6.150  0.98343  -31.4  
 6.200  0.98335  -31.6  
 6.250  0.98327  -31.9  
 6.300  0.98336  -32.1  
 6.350  0.98319  -32.4  
 6.400  0.98303  -32.6  
 6.450  0.98342  -32.8  
 6.500  0.98332  -33.1  
!
! (c) 1999  Infineon Technologies AG, Munich
