! Infineon Technologies  Discrete & RF Semiconductors
! BAT24-02LS
! Si Schottky Diode in TSSLP-2
! VR = 3 V     
! S-Parameters:                                        July  2007
# GHz  S  MA  R  50
!  f          S11
! GHz     MAG     ANG
 0.050  0.99999   -0.3  
 0.100  0.99999   -0.5  
 0.150  0.99999   -0.8  
 0.200  0.99999   -1.0  
 0.250  0.99999   -1.3  
 0.300  0.99999   -1.5  
 0.350  0.99999   -1.8  
 0.400  0.99999   -2.0  
 0.450  0.99999   -2.3  
 0.500  0.99999   -2.5  
 0.550  0.99999   -2.8  
 0.600  0.99999   -3.0  
 0.650  0.99999   -3.3  
 0.700  0.99969   -3.6  
 0.750  0.99999   -3.8  
 0.800  0.99999   -4.1  
 0.850  0.99999   -4.3  
 0.900  0.99999   -4.6  
 0.950  0.99999   -4.8  
 1.000  0.99999   -5.1  
 1.050  0.99984   -5.3  
 1.100  0.99983   -5.6  
 1.150  0.99971   -5.9  
 1.200  0.99883   -6.1  
 1.250  0.99866   -6.4  
 1.300  0.99838   -6.6  
 1.350  0.99789   -6.9  
 1.400  0.99703   -7.1  
 1.450  0.99666   -7.3  
 1.500  0.99679   -7.5  
 1.550  0.99704   -7.8  
 1.600  0.99556   -8.0  
 1.650  0.99669   -8.2  
 1.700  0.99737   -8.5  
 1.750  0.99752   -8.7  
 1.800  0.99610   -8.9  
 1.850  0.99809   -9.2  
 1.900  0.99800   -9.4  
 1.950  0.99780   -9.7  
 2.000  0.99739  -10.0  
 2.050  0.99745  -10.2  
 2.100  0.99770  -10.4  
 2.150  0.99760  -10.7  
 2.200  0.99769  -11.0  
 2.250  0.99760  -11.2  
 2.300  0.99753  -11.5  
 2.350  0.99719  -11.7  
 2.400  0.99736  -12.0  
 2.450  0.99734  -12.2  
 2.500  0.99743  -12.4  
 2.550  0.99734  -12.7  
 2.600  0.99737  -12.9  
 2.650  0.99728  -13.2  
 2.700  0.99717  -13.4  
 2.750  0.99727  -13.7  
 2.800  0.99709  -13.9  
 2.850  0.99706  -14.2  
 2.900  0.99665  -14.4  
 2.950  0.99616  -14.7  
 3.000  0.99658  -14.9  
 3.050  0.99655  -15.2  
 3.100  0.99689  -15.4  
 3.150  0.99675  -15.7  
 3.200  0.99683  -15.9  
 3.250  0.99687  -16.2  
 3.300  0.99686  -16.5  
 3.350  0.99702  -16.7  
 3.400  0.99684  -17.0  
 3.450  0.99700  -17.2  
 3.500  0.99691  -17.5  
 3.550  0.99650  -17.8  
 3.600  0.99610  -18.0  
 3.650  0.99605  -18.3  
 3.700  0.99553  -18.6  
 3.750  0.99545  -18.8  
 3.800  0.99532  -19.1  
 3.850  0.99500  -19.4  
 3.900  0.99472  -19.6  
 3.950  0.99400  -19.9  
 4.000  0.99362  -20.1  
 4.050  0.99344  -20.4  
 4.100  0.99269  -20.6  
 4.150  0.99229  -20.9  
 4.200  0.99167  -21.1  
 4.250  0.99155  -21.3  
 4.300  0.99120  -21.6  
 4.350  0.99095  -21.8  
 4.400  0.99086  -22.1  
 4.450  0.99031  -22.3  
 4.500  0.99044  -22.6  
 4.550  0.99023  -22.8  
 4.600  0.99030  -23.0  
 4.650  0.98981  -23.3  
 4.700  0.99010  -23.5  
 4.750  0.99015  -23.8  
 4.800  0.99018  -24.0  
 4.850  0.99008  -24.3  
 4.900  0.98938  -24.6  
 4.950  0.98934  -24.8  
 5.000  0.98840  -25.1  
 5.050  0.98762  -25.4  
 5.100  0.98723  -25.6  
 5.150  0.98696  -25.8  
 5.200  0.98607  -26.0  
 5.250  0.98593  -26.3  
 5.300  0.98569  -26.5  
 5.350  0.98522  -26.8  
 5.400  0.98553  -27.0  
 5.450  0.98492  -27.2  
 5.500  0.98476  -27.5  
 5.550  0.98464  -27.7  
 5.600  0.98461  -27.9  
 5.650  0.98469  -28.1  
 5.700  0.98463  -28.4  
 5.750  0.98284  -28.6  
 5.800  0.98375  -28.9  
 5.850  0.98398  -29.1  
 5.900  0.98395  -29.4  
 5.950  0.98373  -29.6  
 6.000  0.98368  -29.8  
 6.050  0.98345  -30.1  
 6.100  0.98332  -30.3  
 6.150  0.98338  -30.5  
 6.200  0.98334  -30.8  
 6.250  0.98323  -31.0  
 6.300  0.98342  -31.3  
 6.350  0.98323  -31.5  
 6.400  0.98308  -31.8  
 6.450  0.98346  -32.0  
 6.500  0.98337  -32.2  
!
! (c) 1999  Infineon Technologies AG, Munich
