! Infineon Technologies  Discrete & RF Semiconductors
! BAT24-02LS
! Si Schottky Diode in TSSLP-2
! VR = 4 V     
! S-Parameters:                                        July  2007
# GHz  S  MA  R  50
!  f          S11
! GHz     MAG     ANG
 0.050  0.99999   -0.2  
 0.100  0.99999   -0.5  
 0.150  0.99999   -0.7  
 0.200  0.99999   -1.0  
 0.250  0.99999   -1.2  
 0.300  0.99999   -1.5  
 0.350  0.99999   -1.7  
 0.400  0.99999   -2.0  
 0.450  0.99999   -2.2  
 0.500  0.99999   -2.5  
 0.550  0.99999   -2.7  
 0.600  0.99999   -3.0  
 0.650  0.99999   -3.2  
 0.700  0.99956   -3.5  
 0.750  0.99999   -3.7  
 0.800  0.99999   -4.0  
 0.850  0.99999   -4.2  
 0.900  0.99999   -4.5  
 0.950  0.99999   -4.7  
 1.000  0.99999   -5.0  
 1.050  0.99976   -5.3  
 1.100  0.99974   -5.5  
 1.150  0.99953   -5.8  
 1.200  0.99863   -6.0  
 1.250  0.99868   -6.3  
 1.300  0.99822   -6.5  
 1.350  0.99777   -6.8  
 1.400  0.99688   -7.0  
 1.450  0.99650   -7.2  
 1.500  0.99661   -7.4  
 1.550  0.99690   -7.6  
 1.600  0.99558   -7.8  
 1.650  0.99651   -8.0  
 1.700  0.99718   -8.3  
 1.750  0.99737   -8.6  
 1.800  0.99604   -8.8  
 1.850  0.99807   -9.0  
 1.900  0.99797   -9.3  
 1.950  0.99766   -9.6  
 2.000  0.99725   -9.8  
 2.050  0.99733  -10.0  
 2.100  0.99760  -10.2  
 2.150  0.99759  -10.5  
 2.200  0.99766  -10.8  
 2.250  0.99738  -11.0  
 2.300  0.99747  -11.3  
 2.350  0.99719  -11.5  
 2.400  0.99727  -11.7  
 2.450  0.99714  -12.0  
 2.500  0.99729  -12.2  
 2.550  0.99727  -12.5  
 2.600  0.99725  -12.7  
 2.650  0.99732  -13.0  
 2.700  0.99706  -13.2  
 2.750  0.99720  -13.4  
 2.800  0.99704  -13.7  
 2.850  0.99713  -14.0  
 2.900  0.99664  -14.2  
 2.950  0.99643  -14.4  
 3.000  0.99669  -14.7  
 3.050  0.99661  -14.9  
 3.100  0.99694  -15.2  
 3.150  0.99678  -15.4  
 3.200  0.99678  -15.6  
 3.250  0.99679  -15.9  
 3.300  0.99689  -16.2  
 3.350  0.99705  -16.4  
 3.400  0.99690  -16.7  
 3.450  0.99704  -16.9  
 3.500  0.99697  -17.2  
 3.550  0.99661  -17.5  
 3.600  0.99618  -17.7  
 3.650  0.99598  -18.0  
 3.700  0.99553  -18.2  
 3.750  0.99574  -18.5  
 3.800  0.99533  -18.8  
 3.850  0.99495  -19.0  
 3.900  0.99468  -19.3  
 3.950  0.99414  -19.5  
 4.000  0.99354  -19.8  
 4.050  0.99334  -20.0  
 4.100  0.99278  -20.3  
 4.150  0.99228  -20.5  
 4.200  0.99164  -20.8  
 4.250  0.99152  -21.0  
 4.300  0.99111  -21.2  
 4.350  0.99109  -21.5  
 4.400  0.99099  -21.7  
 4.450  0.99037  -21.9  
 4.500  0.99064  -22.2  
 4.550  0.99021  -22.4  
 4.600  0.99023  -22.6  
 4.650  0.98978  -22.9  
 4.700  0.99007  -23.1  
 4.750  0.98998  -23.4  
 4.800  0.99011  -23.6  
 4.850  0.98985  -23.9  
 4.900  0.98937  -24.1  
 4.950  0.98924  -24.4  
 5.000  0.98824  -24.7  
 5.050  0.98757  -24.9  
 5.100  0.98706  -25.2  
 5.150  0.98670  -25.4  
 5.200  0.98599  -25.6  
 5.250  0.98598  -25.8  
 5.300  0.98557  -26.0  
 5.350  0.98514  -26.3  
 5.400  0.98553  -26.5  
 5.450  0.98479  -26.7  
 5.500  0.98466  -27.0  
 5.550  0.98454  -27.2  
 5.600  0.98450  -27.4  
 5.650  0.98447  -27.6  
 5.700  0.98435  -27.9  
 5.750  0.98227  -28.1  
 5.800  0.98362  -28.4  
 5.850  0.98400  -28.6  
 5.900  0.98377  -28.8  
 5.950  0.98356  -29.1  
 6.000  0.98347  -29.3  
 6.050  0.98321  -29.5  
 6.100  0.98325  -29.8  
 6.150  0.98332  -30.0  
 6.200  0.98309  -30.2  
 6.250  0.98308  -30.5  
 6.300  0.98333  -30.7  
 6.350  0.98311  -30.9  
 6.400  0.98292  -31.2  
 6.450  0.98335  -31.4  
 6.500  0.98314  -31.6  
!
! (c) 1999  Infineon Technologies AG, Munich
