! Infineon Technologies  Discrete & RF Semiconductors
! BAT24-02LS
! Si Schottky Diode in TSSLP-2
! IF = 5 mA     
! S-Parameters:                                        July  2007
# GHz  S  MA  R  50
!  f          S11
! GHz     MAG     ANG
 0.050  0.64076  179.6  
 0.100  0.63977  179.4  
 0.150  0.63957  179.2  
 0.200  0.64014  178.9  
 0.250  0.64047  178.7  
 0.300  0.64045  178.4  
 0.350  0.63950  178.1  
 0.400  0.63907  177.9  
 0.450  0.63998  177.6  
 0.500  0.63992  177.4  
 0.550  0.63962  177.1  
 0.600  0.63917  176.9  
 0.650  0.63841  176.7  
 0.700  0.63923  176.4  
 0.750  0.63935  176.2  
 0.800  0.63915  175.9  
 0.850  0.63845  175.7  
 0.900  0.63793  175.5  
 0.950  0.63854  175.2  
 1.000  0.63850  175.0  
 1.050  0.63878  174.7  
 1.100  0.63817  174.5  
 1.150  0.63781  174.2  
 1.200  0.63838  174.0  
 1.250  0.63835  173.8  
 1.300  0.63816  173.5  
 1.350  0.63803  173.3  
 1.400  0.63751  173.1  
 1.450  0.63833  172.8  
 1.500  0.63815  172.6  
 1.550  0.63806  172.3  
 1.600  0.63738  172.1  
 1.650  0.63704  171.9  
 1.700  0.63715  171.6  
 1.750  0.63754  171.4  
 1.800  0.63769  171.1  
 1.850  0.63753  170.9  
 1.900  0.63719  170.6  
 1.950  0.63754  170.4  
 2.000  0.63732  170.1  
 2.050  0.63709  169.9  
 2.100  0.63662  169.7  
 2.150  0.63622  169.4  
 2.200  0.63662  169.2  
 2.250  0.63706  168.9  
 2.300  0.63650  168.7  
 2.350  0.63609  168.5  
 2.400  0.63578  168.2  
 2.450  0.63570  168.0  
 2.500  0.63614  167.7  
 2.550  0.63479  167.4  
 2.600  0.63534  167.2  
 2.650  0.63536  166.9  
 2.700  0.63428  166.7  
 2.750  0.63556  166.5  
 2.800  0.63571  166.2  
 2.850  0.63519  166.0  
 2.900  0.63463  165.7  
 2.950  0.63559  165.4  
 3.000  0.63520  165.2  
 3.050  0.63527  165.0  
 3.100  0.63584  164.8  
 3.150  0.63528  164.5  
 3.200  0.63503  164.3  
 3.250  0.63624  164.1  
 3.300  0.63607  163.8  
 3.350  0.63543  163.6  
 3.400  0.63581  163.4  
 3.450  0.63601  163.1  
 3.500  0.63545  162.9  
 3.550  0.63646  162.7  
 3.600  0.63632  162.4  
 3.650  0.63553  162.2  
 3.700  0.63633  161.9  
 3.750  0.63679  161.7  
 3.800  0.63633  161.4  
 3.850  0.63632  161.2  
 3.900  0.63614  161.0  
 3.950  0.63625  160.7  
 4.000  0.63651  160.5  
 4.050  0.63691  160.3  
 4.100  0.63634  160.1  
 4.150  0.63594  159.8  
 4.200  0.63697  159.6  
 4.250  0.63589  159.3  
 4.300  0.63578  159.1  
 4.350  0.63625  158.9  
 4.400  0.63576  158.6  
 4.450  0.63702  158.4  
 4.500  0.63650  158.2  
 4.550  0.63673  157.9  
 4.600  0.63658  157.7  
 4.650  0.63638  157.5  
 4.700  0.63685  157.2  
 4.750  0.63687  156.9  
 4.800  0.63647  156.7  
 4.850  0.63645  156.5  
 4.900  0.63596  156.2  
 4.950  0.63648  156.0  
 5.000  0.63649  155.7  
 5.050  0.63590  155.5  
 5.100  0.63566  155.3  
 5.150  0.63497  155.0  
 5.200  0.63617  154.8  
 5.250  0.63563  154.6  
 5.300  0.63555  154.4  
 5.350  0.63577  154.1  
 5.400  0.63505  154.0  
 5.450  0.63568  153.7  
 5.500  0.63618  153.5  
 5.550  0.63607  153.2  
 5.600  0.63552  153.0  
 5.650  0.63604  152.8  
 5.700  0.63576  152.5  
 5.750  0.63382  152.0  
 5.800  0.63540  152.0  
 5.850  0.63535  151.8  
 5.900  0.63531  151.6  
 5.950  0.63568  151.3  
 6.000  0.63613  151.1  
 6.050  0.63548  150.9  
 6.100  0.63567  150.7  
 6.150  0.63515  150.4  
 6.200  0.63573  150.2  
 6.250  0.63568  150.0  
 6.300  0.63574  149.7  
 6.350  0.63492  149.5  
 6.400  0.63541  149.3  
 6.450  0.63566  149.0  
 6.500  0.63587  148.7  
!
! (c) 1999  Infineon Technologies AG, Munich
