! Infineon Technologies  Discrete & RF Semiconductors
! BAT24-02LS
! Si Schottky Diode in TSSLP-2
! IF = 20 mA     
! S-Parameters:                                        July  2007
# GHz  S  MA  R  50
!  f          S11
! GHz     MAG     ANG
 0.050  0.73592  179.6  
 0.100  0.73648  179.4  
 0.150  0.73665  179.2  
 0.200  0.73634  178.9  
 0.250  0.73634  178.7  
 0.300  0.73628  178.4  
 0.350  0.73561  178.2  
 0.400  0.73573  177.9  
 0.450  0.73592  177.6  
 0.500  0.73556  177.4  
 0.550  0.73517  177.1  
 0.600  0.73471  176.9  
 0.650  0.73457  176.6  
 0.700  0.73489  176.4  
 0.750  0.73462  176.2  
 0.800  0.73429  175.9  
 0.850  0.73435  175.7  
 0.900  0.73428  175.4  
 0.950  0.73419  175.2  
 1.000  0.73413  174.9  
 1.050  0.73422  174.7  
 1.100  0.73389  174.4  
 1.150  0.73388  174.2  
 1.200  0.73387  173.9  
 1.250  0.73362  173.7  
 1.300  0.73354  173.5  
 1.350  0.73356  173.2  
 1.400  0.73339  173.0  
 1.450  0.73343  172.7  
 1.500  0.73354  172.5  
 1.550  0.73294  172.2  
 1.600  0.73305  172.0  
 1.650  0.73287  171.8  
 1.700  0.73295  171.5  
 1.750  0.73258  171.3  
 1.800  0.73278  171.0  
 1.850  0.73259  170.8  
 1.900  0.73253  170.5  
 1.950  0.73237  170.3  
 2.000  0.73205  170.0  
 2.050  0.73182  169.8  
 2.100  0.73180  169.6  
 2.150  0.73173  169.3  
 2.200  0.73173  169.1  
 2.250  0.73161  168.8  
 2.300  0.73141  168.6  
 2.350  0.73168  168.3  
 2.400  0.73148  168.1  
 2.450  0.73123  167.9  
 2.500  0.73111  167.6  
 2.550  0.73084  167.4  
 2.600  0.73082  167.1  
 2.650  0.73092  166.9  
 2.700  0.73082  166.7  
 2.750  0.73071  166.4  
 2.800  0.73086  166.2  
 2.850  0.73072  166.0  
 2.900  0.73063  165.7  
 2.950  0.73077  165.5  
 3.000  0.73074  165.3  
 3.050  0.73052  165.0  
 3.100  0.73051  164.8  
 3.150  0.73050  164.5  
 3.200  0.73050  164.3  
 3.250  0.73073  164.0  
 3.300  0.73054  163.8  
 3.350  0.73036  163.6  
 3.400  0.73041  163.3  
 3.450  0.73068  163.1  
 3.500  0.73031  162.8  
 3.550  0.73057  162.6  
 3.600  0.73043  162.4  
 3.650  0.73022  162.1  
 3.700  0.73053  161.9  
 3.750  0.73031  161.7  
 3.800  0.73012  161.4  
 3.850  0.73038  161.1  
 3.900  0.73039  160.9  
 3.950  0.73009  160.7  
 4.000  0.73021  160.4  
 4.050  0.73024  160.2  
 4.100  0.72990  159.9  
 4.150  0.73010  159.7  
 4.200  0.72992  159.5  
 4.250  0.72994  159.2  
 4.300  0.73000  159.0  
 4.350  0.73016  158.7  
 4.400  0.72983  158.5  
 4.450  0.73031  158.2  
 4.500  0.72997  158.0  
 4.550  0.72988  157.8  
 4.600  0.72983  157.5  
 4.650  0.72962  157.3  
 4.700  0.72978  157.0  
 4.750  0.72980  156.8  
 4.800  0.72962  156.5  
 4.850  0.72949  156.2  
 4.900  0.72936  156.0  
 4.950  0.72916  155.8  
 5.000  0.72858  155.5  
 5.050  0.72858  155.3  
 5.100  0.72848  155.1  
 5.150  0.72795  154.8  
 5.200  0.72826  154.6  
 5.250  0.72771  154.3  
 5.300  0.72770  154.1  
 5.350  0.72764  153.9  
 5.400  0.72744  153.6  
 5.450  0.72705  153.4  
 5.500  0.72725  153.2  
 5.550  0.72727  152.9  
 5.600  0.72709  152.7  
 5.650  0.72711  152.4  
 5.700  0.72658  152.2  
 5.750  0.72930  151.9  
 5.800  0.72637  151.7  
 5.850  0.72652  151.5  
 5.900  0.72601  151.2  
 5.950  0.72614  151.0  
 6.000  0.72602  150.8  
 6.050  0.72568  150.5  
 6.100  0.72578  150.3  
 6.150  0.72549  150.1  
 6.200  0.72542  149.8  
 6.250  0.72533  149.6  
 6.300  0.72527  149.4  
 6.350  0.72514  149.2  
 6.400  0.72501  148.9  
 6.450  0.72526  148.7  
 6.500  0.72525  148.5  
!
! (c) 1999  Infineon Technologies AG, Munich
