! Infineon Technologies  Discrete & RF Semiconductors
! BAT24-02LS
! Si Schottky Diode in TSSLP-2
! IF = 0.2 mA     
! S-Parameters:                                        July  2007
# GHz  S  MA  R  50
!  f          S11
! GHz     MAG     ANG
 0.050  0.72433   -0.5  
 0.100  0.70992   -0.4  
 0.150  0.70809   -0.5  
 0.200  0.71928   -1.2  
 0.250  0.72629   -1.6  
 0.300  0.71853   -1.7  
 0.350  0.70732   -2.3  
 0.400  0.70163   -2.7  
 0.450  0.71081   -3.0  
 0.500  0.71804   -3.4  
 0.550  0.71479   -3.5  
 0.600  0.70084   -4.3  
 0.650  0.69731   -4.5  
 0.700  0.71060   -5.1  
 0.750  0.71191   -5.3  
 0.800  0.70823   -5.4  
 0.850  0.70076   -6.2  
 0.900  0.69952   -6.3  
 0.950  0.70769   -6.7  
 1.000  0.71079   -7.1  
 1.050  0.70823   -7.2  
 1.100  0.69550   -8.0  
 1.150  0.69182   -8.1  
 1.200  0.70350   -8.7  
 1.250  0.70769   -9.0  
 1.300  0.70087   -9.2  
 1.350  0.69475   -9.8  
 1.400  0.68513   -9.9  
 1.450  0.69805  -10.4  
 1.500  0.70231  -10.7  
 1.550  0.70111  -10.8  
 1.600  0.69455  -11.5  
 1.650  0.68874  -11.7  
 1.700  0.70805  -12.1  
 1.750  0.70781  -12.6  
 1.800  0.69979  -12.6  
 1.850  0.69449  -13.3  
 1.900  0.69071  -13.4  
 1.950  0.69874  -14.0  
 2.000  0.70690  -14.2  
 2.050  0.70461  -14.4  
 2.100  0.69656  -15.0  
 2.150  0.69614  -15.3  
 2.200  0.70216  -15.7  
 2.250  0.71468  -15.9  
 2.300  0.70534  -16.2  
 2.350  0.70382  -16.9  
 2.400  0.69964  -17.2  
 2.450  0.70822  -17.4  
 2.500  0.71513  -17.7  
 2.550  0.72247  -17.1  
 2.600  0.70784  -17.8  
 2.650  0.70094  -16.5  
 2.700  0.71527  -17.3  
 2.750  0.71800  -18.1  
 2.800  0.71312  -17.7  
 2.850  0.70703  -18.8  
 2.900  0.70700  -18.5  
 2.950  0.70674  -18.8  
 3.000  0.71657  -18.9  
 3.050  0.72063  -20.0  
 3.100  0.69860  -20.3  
 3.150  0.70219  -20.0  
 3.200  0.70952  -20.8  
 3.250  0.71584  -21.5  
 3.300  0.70900  -21.2  
 3.350  0.70815  -22.1  
 3.400  0.70035  -22.5  
 3.450  0.71226  -22.4  
 3.500  0.71741  -23.2  
 3.550  0.71703  -23.8  
 3.600  0.70261  -24.0  
 3.650  0.70132  -24.3  
 3.700  0.71226  -25.1  
 3.750  0.71116  -25.1  
 3.800  0.71181  -25.3  
 3.850  0.70492  -26.3  
 3.900  0.69881  -26.5  
 3.950  0.70585  -26.9  
 4.000  0.71335  -27.4  
 4.050  0.71116  -27.9  
 4.100  0.69940  -28.0  
 4.150  0.69629  -28.6  
 4.200  0.70920  -28.9  
 4.250  0.70944  -28.6  
 4.300  0.71106  -29.1  
 4.350  0.70864  -30.2  
 4.400  0.69198  -30.2  
 4.450  0.70632  -30.9  
 4.500  0.71030  -31.2  
 4.550  0.70843  -31.4  
 4.600  0.70065  -32.3  
 4.650  0.69494  -32.7  
 4.700  0.70750  -32.8  
 4.750  0.70665  -32.8  
 4.800  0.70816  -33.3  
 4.850  0.70421  -34.4  
 4.900  0.69561  -34.5  
 4.950  0.69795  -35.4  
 5.000  0.71249  -35.4  
 5.050  0.69728  -35.5  
 5.100  0.70479  -36.4  
 5.150  0.68901  -37.0  
 5.200  0.70240  -37.0  
 5.250  0.70602  -37.2  
 5.300  0.69879  -37.5  
 5.350  0.69885  -38.6  
 5.400  0.69154  -39.1  
 5.450  0.69859  -39.6  
 5.500  0.70516  -39.1  
 5.550  0.69901  -39.1  
 5.600  0.69615  -40.1  
 5.650  0.69178  -40.5  
 5.700  0.69869  -40.0  
 5.750  0.70799  -40.0  
 5.800  0.70204  -40.9  
 5.850  0.69845  -41.7  
 5.900  0.69765  -42.3  
 5.950  0.69598  -42.7  
 6.000  0.70898  -42.4  
 6.050  0.69762  -42.9  
 6.100  0.69908  -43.7  
 6.150  0.69134  -44.1  
 6.200  0.70446  -44.3  
 6.250  0.70566  -44.6  
 6.300  0.70212  -44.6  
 6.350  0.69890  -45.4  
 6.400  0.69636  -45.9  
 6.450  0.69651  -45.9  
 6.500  0.70542  -45.6  
!
! (c) 1999  Infineon Technologies AG, Munich
