! Infineon Technologies  Discrete & RF Semiconductors
! BAT24-02LS
! Si Schottky Diode in TSSLP-2
! IF = 3 mA     
! S-Parameters:                                        July  2007
# GHz  S  MA  R  50
!  f          S11
! GHz     MAG     ANG
 0.050  0.53643  179.5  
 0.100  0.53355  179.3  
 0.150  0.53237  179.0  
 0.200  0.53527  178.8  
 0.250  0.53598  178.6  
 0.300  0.53618  178.3  
 0.350  0.53392  178.1  
 0.400  0.53349  177.9  
 0.450  0.53632  177.6  
 0.500  0.53660  177.4  
 0.550  0.53601  177.1  
 0.600  0.53437  177.0  
 0.650  0.53347  176.7  
 0.700  0.53574  176.5  
 0.750  0.53605  176.3  
 0.800  0.53602  176.0  
 0.850  0.53433  175.8  
 0.900  0.53336  175.5  
 0.950  0.53530  175.3  
 1.000  0.53541  175.1  
 1.050  0.53649  174.8  
 1.100  0.53506  174.6  
 1.150  0.53336  174.3  
 1.200  0.53558  174.1  
 1.250  0.53591  173.9  
 1.300  0.53561  173.6  
 1.350  0.53514  173.5  
 1.400  0.53393  173.2  
 1.450  0.53598  173.0  
 1.500  0.53572  172.7  
 1.550  0.53561  172.5  
 1.600  0.53429  172.3  
 1.650  0.53286  172.0  
 1.700  0.53390  171.8  
 1.750  0.53470  171.6  
 1.800  0.53551  171.3  
 1.850  0.53448  171.1  
 1.900  0.53365  170.8  
 1.950  0.53471  170.6  
 2.000  0.53478  170.4  
 2.050  0.53457  170.1  
 2.100  0.53295  169.9  
 2.150  0.53226  169.7  
 2.200  0.53318  169.4  
 2.250  0.53459  169.2  
 2.300  0.53312  169.0  
 2.350  0.53261  168.7  
 2.400  0.53134  168.5  
 2.450  0.53214  168.3  
 2.500  0.53291  168.0  
 2.550  0.52960  167.5  
 2.600  0.53052  167.4  
 2.650  0.53074  166.8  
 2.700  0.52844  166.7  
 2.750  0.53210  166.6  
 2.800  0.53253  166.1  
 2.850  0.53112  166.0  
 2.900  0.52990  165.7  
 2.950  0.53232  165.4  
 3.000  0.53144  165.2  
 3.050  0.53181  165.2  
 3.100  0.53274  164.9  
 3.150  0.53163  164.5  
 3.200  0.53104  164.4  
 3.250  0.53476  164.2  
 3.300  0.53385  163.8  
 3.350  0.53249  163.7  
 3.400  0.53229  163.5  
 3.450  0.53350  163.1  
 3.500  0.53208  163.0  
 3.550  0.53486  162.8  
 3.600  0.53371  162.6  
 3.650  0.53236  162.3  
 3.700  0.53439  162.1  
 3.750  0.53525  161.8  
 3.800  0.53450  161.6  
 3.850  0.53409  161.5  
 3.900  0.53388  161.2  
 3.950  0.53454  160.9  
 4.000  0.53487  160.8  
 4.050  0.53658  160.5  
 4.100  0.53500  160.3  
 4.150  0.53334  160.1  
 4.200  0.53687  159.8  
 4.250  0.53393  159.6  
 4.300  0.53379  159.4  
 4.350  0.53472  159.3  
 4.400  0.53342  159.0  
 4.450  0.53597  158.8  
 4.500  0.53549  158.6  
 4.550  0.53623  158.3  
 4.600  0.53536  158.2  
 4.650  0.53434  157.9  
 4.700  0.53705  157.5  
 4.750  0.53644  157.3  
 4.800  0.53521  157.1  
 4.850  0.53570  157.0  
 4.900  0.53452  156.7  
 4.950  0.53625  156.5  
 5.000  0.53766  156.3  
 5.050  0.53566  156.0  
 5.100  0.53566  155.9  
 5.150  0.53396  155.6  
 5.200  0.53725  155.3  
 5.250  0.53596  155.2  
 5.300  0.53642  154.9  
 5.350  0.53658  154.8  
 5.400  0.53483  154.7  
 5.450  0.53714  154.4  
 5.500  0.53874  154.1  
 5.550  0.53768  153.8  
 5.600  0.53683  153.7  
 5.650  0.53756  153.5  
 5.700  0.53796  153.0  
 5.750  0.53634  152.8  
 5.800  0.53704  152.6  
 5.850  0.53686  152.5  
 5.900  0.53703  152.3  
 5.950  0.53795  152.1  
 6.000  0.53967  151.8  
 6.050  0.53815  151.6  
 6.100  0.53852  151.4  
 6.150  0.53750  151.2  
 6.200  0.53917  150.9  
 6.250  0.53922  150.7  
 6.300  0.53946  150.5  
 6.350  0.53798  150.3  
 6.400  0.53894  150.1  
 6.450  0.54015  149.7  
 6.500  0.54018  149.4  
!
! (c) 1999  Infineon Technologies AG, Munich
