! Infineon Technologies  Discrete & RF Semiconductors
! BAT24-02LS
! Si Schottky Diode in TSSLP-2
! IF = 15 mA     
! S-Parameters:                                        July  2007
# GHz  S  MA  R  50
!  f          S11
! GHz     MAG     ANG
 0.050  0.73122  179.6  
 0.100  0.73157  179.4  
 0.150  0.73161  179.2  
 0.200  0.73145  178.9  
 0.250  0.73146  178.7  
 0.300  0.73145  178.4  
 0.350  0.73072  178.2  
 0.400  0.73090  177.9  
 0.450  0.73121  177.6  
 0.500  0.73065  177.4  
 0.550  0.73035  177.1  
 0.600  0.73000  176.9  
 0.650  0.72982  176.7  
 0.700  0.73001  176.4  
 0.750  0.72979  176.2  
 0.800  0.72957  175.9  
 0.850  0.72951  175.7  
 0.900  0.72931  175.4  
 0.950  0.72932  175.2  
 1.000  0.72935  174.9  
 1.050  0.72926  174.7  
 1.100  0.72895  174.4  
 1.150  0.72896  174.2  
 1.200  0.72891  174.0  
 1.250  0.72873  173.7  
 1.300  0.72861  173.5  
 1.350  0.72871  173.2  
 1.400  0.72853  173.0  
 1.450  0.72858  172.7  
 1.500  0.72871  172.5  
 1.550  0.72815  172.2  
 1.600  0.72824  172.0  
 1.650  0.72798  171.8  
 1.700  0.72805  171.5  
 1.750  0.72767  171.3  
 1.800  0.72786  171.0  
 1.850  0.72762  170.8  
 1.900  0.72770  170.5  
 1.950  0.72764  170.3  
 2.000  0.72733  170.0  
 2.050  0.72713  169.8  
 2.100  0.72708  169.6  
 2.150  0.72699  169.3  
 2.200  0.72692  169.1  
 2.250  0.72687  168.8  
 2.300  0.72668  168.6  
 2.350  0.72680  168.3  
 2.400  0.72665  168.1  
 2.450  0.72656  167.9  
 2.500  0.72632  167.6  
 2.550  0.72610  167.4  
 2.600  0.72600  167.1  
 2.650  0.72609  166.9  
 2.700  0.72578  166.7  
 2.750  0.72586  166.4  
 2.800  0.72606  166.2  
 2.850  0.72589  165.9  
 2.900  0.72573  165.7  
 2.950  0.72586  165.5  
 3.000  0.72575  165.3  
 3.050  0.72575  165.0  
 3.100  0.72589  164.8  
 3.150  0.72575  164.5  
 3.200  0.72568  164.3  
 3.250  0.72591  164.0  
 3.300  0.72566  163.8  
 3.350  0.72550  163.6  
 3.400  0.72566  163.3  
 3.450  0.72582  163.1  
 3.500  0.72552  162.9  
 3.550  0.72575  162.6  
 3.600  0.72567  162.4  
 3.650  0.72560  162.1  
 3.700  0.72574  161.9  
 3.750  0.72564  161.7  
 3.800  0.72536  161.4  
 3.850  0.72557  161.1  
 3.900  0.72553  160.9  
 3.950  0.72536  160.7  
 4.000  0.72545  160.4  
 4.050  0.72541  160.2  
 4.100  0.72519  159.9  
 4.150  0.72541  159.7  
 4.200  0.72518  159.5  
 4.250  0.72514  159.2  
 4.300  0.72518  159.0  
 4.350  0.72537  158.8  
 4.400  0.72507  158.5  
 4.450  0.72569  158.2  
 4.500  0.72522  158.0  
 4.550  0.72516  157.8  
 4.600  0.72513  157.5  
 4.650  0.72487  157.3  
 4.700  0.72498  157.0  
 4.750  0.72495  156.8  
 4.800  0.72472  156.5  
 4.850  0.72482  156.3  
 4.900  0.72467  156.0  
 4.950  0.72446  155.8  
 5.000  0.72381  155.5  
 5.050  0.72376  155.3  
 5.100  0.72348  155.1  
 5.150  0.72319  154.8  
 5.200  0.72355  154.6  
 5.250  0.72309  154.3  
 5.300  0.72299  154.1  
 5.350  0.72288  153.9  
 5.400  0.72277  153.7  
 5.450  0.72246  153.4  
 5.500  0.72249  153.2  
 5.550  0.72248  153.0  
 5.600  0.72233  152.7  
 5.650  0.72263  152.5  
 5.700  0.72196  152.2  
 5.750  0.72401  152.0  
 5.800  0.72161  151.7  
 5.850  0.72178  151.5  
 5.900  0.72158  151.3  
 5.950  0.72136  151.0  
 6.000  0.72138  150.8  
 6.050  0.72111  150.6  
 6.100  0.72115  150.3  
 6.150  0.72077  150.1  
 6.200  0.72078  149.9  
 6.250  0.72074  149.6  
 6.300  0.72077  149.4  
 6.350  0.72034  149.2  
 6.400  0.72036  148.9  
 6.450  0.72065  148.7  
 6.500  0.72046  148.5  
!
! (c) 1999  Infineon Technologies AG, Munich
