! Infineon Technologies  Discrete & RF Semiconductors
! BAT24-02LS
! Si Schottky Diode in TSSLP-2
! IF = 0.1 mA     
! S-Parameters:                                        July  2007
# GHz  S  MA  R  50
!  f          S11
! GHz     MAG     ANG
 0.050  0.85001   -0.1  
 0.100  0.84729   -0.5  
 0.150  0.84591   -0.8  
 0.200  0.85410   -1.3  
 0.250  0.85814   -1.6  
 0.300  0.85352   -1.9  
 0.350  0.84585   -2.3  
 0.400  0.84272   -2.8  
 0.450  0.84920   -3.0  
 0.500  0.85334   -3.4  
 0.550  0.85140   -3.6  
 0.600  0.84224   -4.2  
 0.650  0.84004   -4.5  
 0.700  0.84918   -4.9  
 0.750  0.85002   -5.2  
 0.800  0.84809   -5.4  
 0.850  0.84272   -5.9  
 0.900  0.84172   -6.2  
 0.950  0.84738   -6.6  
 1.000  0.84857   -6.9  
 1.050  0.84764   -7.2  
 1.100  0.83937   -7.7  
 1.150  0.83648   -8.0  
 1.200  0.84435   -8.4  
 1.250  0.84658   -8.7  
 1.300  0.84269   -9.1  
 1.350  0.83813   -9.5  
 1.400  0.83173   -9.8  
 1.450  0.84028  -10.1  
 1.500  0.84251  -10.4  
 1.550  0.84232  -10.7  
 1.600  0.83698  -11.1  
 1.650  0.83310  -11.4  
 1.700  0.84683  -11.7  
 1.750  0.84577  -12.1  
 1.800  0.84114  -12.4  
 1.850  0.83788  -12.8  
 1.900  0.83434  -13.1  
 1.950  0.84073  -13.6  
 2.000  0.84551  -13.8  
 2.050  0.84444  -14.1  
 2.100  0.83844  -14.5  
 2.150  0.83777  -14.9  
 2.200  0.84271  -15.2  
 2.250  0.85027  -15.5  
 2.300  0.84458  -15.9  
 2.350  0.84271  -16.3  
 2.400  0.83996  -16.7  
 2.450  0.84579  -16.9  
 2.500  0.84923  -17.2  
 2.550  0.85392  -17.1  
 2.600  0.84456  -17.6  
 2.650  0.83992  -17.1  
 2.700  0.84896  -17.6  
 2.750  0.85064  -18.2  
 2.800  0.84809  -18.2  
 2.850  0.84398  -18.9  
 2.900  0.84341  -19.0  
 2.950  0.84300  -19.2  
 3.000  0.84873  -19.4  
 3.050  0.85194  -20.1  
 3.100  0.83873  -20.5  
 3.150  0.84043  -20.5  
 3.200  0.84501  -21.1  
 3.250  0.84919  -21.6  
 3.300  0.84560  -21.6  
 3.350  0.84421  -22.2  
 3.400  0.83940  -22.7  
 3.450  0.84686  -22.7  
 3.500  0.84932  -23.2  
 3.550  0.85006  -23.8  
 3.600  0.84057  -24.0  
 3.650  0.83951  -24.4  
 3.700  0.84697  -24.9  
 3.750  0.84575  -25.1  
 3.800  0.84670  -25.4  
 3.850  0.84164  -26.1  
 3.900  0.83789  -26.5  
 3.950  0.84219  -26.8  
 4.000  0.84642  -27.1  
 4.050  0.84562  -27.6  
 4.100  0.83728  -27.8  
 4.150  0.83479  -28.4  
 4.200  0.84317  -28.6  
 4.250  0.84249  -28.5  
 4.300  0.84372  -28.9  
 4.350  0.84182  -29.7  
 4.400  0.83080  -30.0  
 4.450  0.84005  -30.3  
 4.500  0.84235  -30.7  
 4.550  0.84181  -31.0  
 4.600  0.83634  -31.5  
 4.650  0.83251  -32.0  
 4.700  0.84124  -32.1  
 4.750  0.84015  -32.2  
 4.800  0.84151  -32.7  
 4.850  0.83821  -33.4  
 4.900  0.83280  -33.7  
 4.950  0.83473  -34.3  
 5.000  0.84368  -34.4  
 5.050  0.83392  -34.7  
 5.100  0.83782  -35.2  
 5.150  0.82794  -35.8  
 5.200  0.83671  -35.9  
 5.250  0.83862  -36.1  
 5.300  0.83369  -36.5  
 5.350  0.83381  -37.1  
 5.400  0.82875  -37.7  
 5.450  0.83432  -38.1  
 5.500  0.83776  -37.9  
 5.550  0.83423  -38.1  
 5.600  0.83147  -38.7  
 5.650  0.82887  -39.1  
 5.700  0.83333  -39.0  
 5.750  0.83682  -39.2  
 5.800  0.83497  -39.8  
 5.850  0.83216  -40.4  
 5.900  0.83182  -40.9  
 5.950  0.83177  -41.2  
 6.000  0.83944  -41.1  
 6.050  0.83240  -41.6  
 6.100  0.83286  -42.2  
 6.150  0.82758  -42.6  
 6.200  0.83681  -42.7  
 6.250  0.83656  -43.0  
 6.300  0.83458  -43.2  
 6.350  0.83196  -43.8  
 6.400  0.83078  -44.3  
 6.450  0.83119  -44.4  
 6.500  0.83673  -44.3  
!
! (c) 1999  Infineon Technologies AG, Munich
