! Infineon Technologies  Discrete & RF Semiconductors
! BAT24-02LS
! Si Schottky Diode in TSSLP-2
! IF = 10 mA     
! S-Parameters:                                        July  2007
# GHz  S  MA  R  50
!  f          S11
! GHz     MAG     ANG
 0.050  0.71303  179.6  
 0.100  0.71351  179.4  
 0.150  0.71339  179.2  
 0.200  0.71320  178.9  
 0.250  0.71339  178.7  
 0.300  0.71335  178.4  
 0.350  0.71265  178.2  
 0.400  0.71276  177.9  
 0.450  0.71291  177.6  
 0.500  0.71250  177.4  
 0.550  0.71226  177.1  
 0.600  0.71186  176.9  
 0.650  0.71157  176.6  
 0.700  0.71190  176.4  
 0.750  0.71161  176.2  
 0.800  0.71159  175.9  
 0.850  0.71127  175.7  
 0.900  0.71118  175.4  
 0.950  0.71112  175.2  
 1.000  0.71121  174.9  
 1.050  0.71127  174.7  
 1.100  0.71098  174.4  
 1.150  0.71091  174.2  
 1.200  0.71087  174.0  
 1.250  0.71064  173.7  
 1.300  0.71042  173.5  
 1.350  0.71063  173.2  
 1.400  0.71040  173.0  
 1.450  0.71045  172.8  
 1.500  0.71053  172.5  
 1.550  0.71010  172.2  
 1.600  0.71004  172.0  
 1.650  0.70987  171.8  
 1.700  0.70993  171.5  
 1.750  0.70968  171.3  
 1.800  0.70981  171.1  
 1.850  0.70972  170.8  
 1.900  0.70967  170.5  
 1.950  0.70958  170.3  
 2.000  0.70932  170.0  
 2.050  0.70924  169.8  
 2.100  0.70903  169.6  
 2.150  0.70887  169.3  
 2.200  0.70884  169.1  
 2.250  0.70894  168.8  
 2.300  0.70870  168.6  
 2.350  0.70874  168.4  
 2.400  0.70847  168.1  
 2.450  0.70848  167.9  
 2.500  0.70831  167.6  
 2.550  0.70797  167.4  
 2.600  0.70792  167.1  
 2.650  0.70815  166.9  
 2.700  0.70754  166.7  
 2.750  0.70785  166.4  
 2.800  0.70789  166.2  
 2.850  0.70774  166.0  
 2.900  0.70770  165.7  
 2.950  0.70799  165.5  
 3.000  0.70786  165.2  
 3.050  0.70770  165.0  
 3.100  0.70791  164.8  
 3.150  0.70776  164.5  
 3.200  0.70764  164.3  
 3.250  0.70804  164.0  
 3.300  0.70790  163.8  
 3.350  0.70765  163.6  
 3.400  0.70778  163.3  
 3.450  0.70794  163.1  
 3.500  0.70772  162.8  
 3.550  0.70801  162.6  
 3.600  0.70776  162.4  
 3.650  0.70765  162.1  
 3.700  0.70788  161.9  
 3.750  0.70785  161.7  
 3.800  0.70753  161.4  
 3.850  0.70778  161.2  
 3.900  0.70779  160.9  
 3.950  0.70760  160.7  
 4.000  0.70742  160.4  
 4.050  0.70786  160.2  
 4.100  0.70740  160.0  
 4.150  0.70749  159.7  
 4.200  0.70732  159.5  
 4.250  0.70725  159.2  
 4.300  0.70735  159.0  
 4.350  0.70757  158.8  
 4.400  0.70737  158.5  
 4.450  0.70788  158.3  
 4.500  0.70749  158.0  
 4.550  0.70759  157.8  
 4.600  0.70741  157.5  
 4.650  0.70733  157.3  
 4.700  0.70740  157.0  
 4.750  0.70735  156.8  
 4.800  0.70709  156.5  
 4.850  0.70703  156.3  
 4.900  0.70694  156.0  
 4.950  0.70681  155.8  
 5.000  0.70642  155.5  
 5.050  0.70631  155.3  
 5.100  0.70621  155.1  
 5.150  0.70571  154.8  
 5.200  0.70618  154.6  
 5.250  0.70569  154.4  
 5.300  0.70558  154.1  
 5.350  0.70558  153.9  
 5.400  0.70528  153.7  
 5.450  0.70523  153.4  
 5.500  0.70527  153.2  
 5.550  0.70521  153.0  
 5.600  0.70490  152.7  
 5.650  0.70520  152.5  
 5.700  0.70469  152.3  
 5.750  0.70470  152.1  
 5.800  0.70439  151.8  
 5.850  0.70460  151.6  
 5.900  0.70423  151.3  
 5.950  0.70431  151.1  
 6.000  0.70425  150.8  
 6.050  0.70395  150.6  
 6.100  0.70403  150.4  
 6.150  0.70373  150.2  
 6.200  0.70379  149.9  
 6.250  0.70361  149.7  
 6.300  0.70352  149.5  
 6.350  0.70342  149.2  
 6.400  0.70339  149.0  
 6.450  0.70361  148.8  
 6.500  0.70356  148.5  
!
! (c) 1999  Infineon Technologies AG, Munich
