! Infineon Technologies  Discrete & RF Semiconductors
! BAT24-02LS
! Si Schottky Diode in TSSLP-2
! IF = 0.3 mA     
! S-Parameters:                                        July  2007
# GHz  S  MA  R  50
!  f          S11
! GHz     MAG     ANG
 0.050  0.57620    1.7  
 0.100  0.58454   -0.3  
 0.150  0.58267   -0.1  
 0.200  0.59344   -1.1  
 0.250  0.60259   -1.5  
 0.300  0.59235   -1.3  
 0.350  0.58078   -2.4  
 0.400  0.57391   -2.6  
 0.450  0.58214   -3.1  
 0.500  0.59123   -3.4  
 0.550  0.58680   -3.3  
 0.600  0.57251   -4.5  
 0.650  0.56835   -4.5  
 0.700  0.58171   -5.4  
 0.750  0.58372   -5.5  
 0.800  0.57936   -5.3  
 0.850  0.57208   -6.5  
 0.900  0.57107   -6.4  
 0.950  0.57852   -6.9  
 1.000  0.58277   -7.2  
 1.050  0.57874   -7.2  
 1.100  0.56452   -8.3  
 1.150  0.56145   -8.2  
 1.200  0.57324   -8.9  
 1.250  0.57905   -9.3  
 1.300  0.57019   -9.3  
 1.350  0.56415  -10.2  
 1.400  0.55434  -10.0  
 1.450  0.56717  -10.7  
 1.500  0.57312  -11.0  
 1.550  0.57082  -11.0  
 1.600  0.56505  -11.9  
 1.650  0.55967  -11.9  
 1.700  0.58002  -12.5  
 1.750  0.57982  -13.0  
 1.800  0.57009  -12.8  
 1.850  0.56449  -13.8  
 1.900  0.56074  -13.8  
 1.950  0.56850  -14.4  
 2.000  0.57925  -14.6  
 2.050  0.57602  -14.6  
 2.100  0.56818  -15.5  
 2.150  0.56800  -15.7  
 2.200  0.57394  -16.1  
 2.250  0.58863  -16.3  
 2.300  0.57774  -16.5  
 2.350  0.57703  -17.6  
 2.400  0.57257  -17.7  
 2.450  0.58157  -18.0  
 2.500  0.59060  -18.1  
 2.550  0.60050  -17.0  
 2.600  0.58294  -18.1  
 2.650  0.57486  -15.9  
 2.700  0.59231  -16.9  
 2.750  0.59455  -18.0  
 2.800  0.58820  -17.2  
 2.850  0.58188  -18.7  
 2.900  0.58258  -18.1  
 2.950  0.58108  -18.3  
 3.000  0.59391  -18.5  
 3.050  0.59749  -19.8  
 3.100  0.57170  -20.2  
 3.150  0.57643  -19.3  
 3.200  0.58468  -20.6  
 3.250  0.59084  -21.4  
 3.300  0.58267  -20.8  
 3.350  0.58291  -22.0  
 3.400  0.57429  -22.4  
 3.450  0.58701  -22.0  
 3.500  0.59513  -23.2  
 3.550  0.59222  -23.8  
 3.600  0.57704  -23.9  
 3.650  0.57594  -24.2  
 3.700  0.58730  -25.2  
 3.750  0.58591  -25.1  
 3.800  0.58623  -25.2  
 3.850  0.57968  -26.6  
 3.900  0.57211  -26.6  
 3.950  0.58028  -27.0  
 4.000  0.59035  -27.7  
 4.050  0.58519  -28.1  
 4.100  0.57349  -28.3  
 4.150  0.57062  -28.8  
 4.200  0.58362  -29.2  
 4.250  0.58679  -28.7  
 4.300  0.58776  -29.3  
 4.350  0.58541  -30.9  
 4.400  0.56703  -30.5  
 4.450  0.58262  -31.5  
 4.500  0.58741  -31.8  
 4.550  0.58431  -31.9  
 4.600  0.57621  -33.1  
 4.650  0.57001  -33.4  
 4.700  0.58254  -33.5  
 4.750  0.58325  -33.4  
 4.800  0.58507  -33.9  
 4.850  0.58069  -35.6  
 4.900  0.57118  -35.4  
 4.950  0.57247  -36.5  
 5.000  0.58909  -36.4  
 5.050  0.57282  -36.3  
 5.100  0.58185  -37.7  
 5.150  0.56350  -38.2  
 5.200  0.57752  -38.2  
 5.250  0.58330  -38.4  
 5.300  0.57443  -38.6  
 5.350  0.57519  -40.2  
 5.400  0.56628  -40.6  
 5.450  0.57297  -41.3  
 5.500  0.58114  -40.5  
 5.550  0.57372  -40.2  
 5.600  0.57107  -41.6  
 5.650  0.56602  -42.0  
 5.700  0.57295  -41.1  
 5.750  0.58527  -41.1  
 5.800  0.57823  -42.1  
 5.850  0.57475  -43.2  
 5.900  0.57352  -43.8  
 5.950  0.57018  -44.2  
 6.000  0.58556  -43.7  
 6.050  0.57256  -44.2  
 6.100  0.57497  -45.5  
 6.150  0.56630  -45.8  
 6.200  0.58070  -46.0  
 6.250  0.58329  -46.3  
 6.300  0.57885  -46.2  
 6.350  0.57596  -47.2  
 6.400  0.57276  -47.7  
 6.450  0.57117  -47.4  
 6.500  0.58309  -47.1  
!
! (c) 1999  Infineon Technologies AG, Munich
