! Infineon Technologies  Discrete & RF Semiconductors
! BAT24-02LS
! Si Schottky Diode in TSSLP-2
! IF = 6 mA     
! S-Parameters:                                        July  2007
# GHz  S  MA  R  50
!  f          S11
! GHz     MAG     ANG
 0.050  0.66612  179.7  
 0.100  0.66553  179.4  
 0.150  0.66542  179.2  
 0.200  0.66577  178.9  
 0.250  0.66589  178.7  
 0.300  0.66585  178.4  
 0.350  0.66508  178.1  
 0.400  0.66488  177.9  
 0.450  0.66551  177.6  
 0.500  0.66509  177.4  
 0.550  0.66511  177.1  
 0.600  0.66448  176.9  
 0.650  0.66406  176.7  
 0.700  0.66468  176.4  
 0.750  0.66463  176.2  
 0.800  0.66432  175.9  
 0.850  0.66388  175.7  
 0.900  0.66341  175.4  
 0.950  0.66382  175.2  
 1.000  0.66376  175.0  
 1.050  0.66393  174.7  
 1.100  0.66373  174.5  
 1.150  0.66334  174.2  
 1.200  0.66368  174.0  
 1.250  0.66350  173.7  
 1.300  0.66337  173.5  
 1.350  0.66326  173.3  
 1.400  0.66282  173.0  
 1.450  0.66346  172.8  
 1.500  0.66338  172.5  
 1.550  0.66305  172.3  
 1.600  0.66269  172.0  
 1.650  0.66238  171.8  
 1.700  0.66243  171.6  
 1.750  0.66268  171.3  
 1.800  0.66277  171.1  
 1.850  0.66266  170.9  
 1.900  0.66248  170.6  
 1.950  0.66277  170.3  
 2.000  0.66250  170.1  
 2.050  0.66231  169.9  
 2.100  0.66200  169.6  
 2.150  0.66163  169.4  
 2.200  0.66190  169.1  
 2.250  0.66198  168.9  
 2.300  0.66167  168.7  
 2.350  0.66143  168.4  
 2.400  0.66127  168.2  
 2.450  0.66118  167.9  
 2.500  0.66136  167.7  
 2.550  0.66033  167.4  
 2.600  0.66067  167.2  
 2.650  0.66071  166.9  
 2.700  0.65998  166.7  
 2.750  0.66082  166.5  
 2.800  0.66104  166.2  
 2.850  0.66046  166.0  
 2.900  0.66023  165.7  
 2.950  0.66080  165.4  
 3.000  0.66068  165.2  
 3.050  0.66045  165.0  
 3.100  0.66109  164.8  
 3.150  0.66059  164.5  
 3.200  0.66046  164.3  
 3.250  0.66142  164.1  
 3.300  0.66124  163.8  
 3.350  0.66079  163.6  
 3.400  0.66109  163.3  
 3.450  0.66112  163.1  
 3.500  0.66064  162.9  
 3.550  0.66142  162.6  
 3.600  0.66118  162.4  
 3.650  0.66068  162.2  
 3.700  0.66119  161.9  
 3.750  0.66154  161.7  
 3.800  0.66095  161.4  
 3.850  0.66106  161.2  
 3.900  0.66110  161.0  
 3.950  0.66099  160.7  
 4.000  0.66119  160.5  
 4.050  0.66159  160.2  
 4.100  0.66096  160.0  
 4.150  0.66097  159.8  
 4.200  0.66161  159.5  
 4.250  0.66072  159.3  
 4.300  0.66077  159.0  
 4.350  0.66108  158.9  
 4.400  0.66090  158.6  
 4.450  0.66170  158.3  
 4.500  0.66104  158.1  
 4.550  0.66140  157.9  
 4.600  0.66130  157.6  
 4.650  0.66117  157.4  
 4.700  0.66146  157.1  
 4.750  0.66151  156.9  
 4.800  0.66116  156.6  
 4.850  0.66111  156.4  
 4.900  0.66072  156.1  
 4.950  0.66102  155.9  
 5.000  0.66095  155.7  
 5.050  0.66048  155.4  
 5.100  0.66011  155.2  
 5.150  0.65969  155.0  
 5.200  0.66053  154.7  
 5.250  0.66009  154.5  
 5.300  0.65997  154.3  
 5.350  0.66021  154.1  
 5.400  0.65931  153.9  
 5.450  0.65996  153.6  
 5.500  0.66038  153.3  
 5.550  0.66002  153.1  
 5.600  0.65973  152.9  
 5.650  0.66013  152.6  
 5.700  0.65982  152.4  
 5.750  0.65788  152.1  
 5.800  0.65951  151.9  
 5.850  0.65960  151.7  
 5.900  0.65927  151.5  
 5.950  0.65955  151.2  
 6.000  0.65994  151.0  
 6.050  0.65926  150.8  
 6.100  0.65946  150.5  
 6.150  0.65903  150.3  
 6.200  0.65921  150.1  
 6.250  0.65926  149.8  
 6.300  0.65937  149.6  
 6.350  0.65871  149.4  
 6.400  0.65916  149.2  
 6.450  0.65927  148.9  
 6.500  0.65947  148.6  
!
! (c) 1999  Infineon Technologies AG, Munich
