! Infineon Technologies  Discrete & RF Semiconductors
! BAT24-02LS
! Si Schottky Diode in TSSLP-2
! IF = 2 mA     
! S-Parameters:                                        July  2007
# GHz  S  MA  R  50
!  f          S11
! GHz     MAG     ANG
 0.050  0.40282  179.5  
 0.100  0.39874  179.2  
 0.150  0.39615  178.7  
 0.200  0.40273  178.7  
 0.250  0.40421  178.6  
 0.300  0.40513  178.2  
 0.350  0.40054  178.2  
 0.400  0.40003  178.0  
 0.450  0.40638  177.6  
 0.500  0.40727  177.4  
 0.550  0.40710  177.1  
 0.600  0.40342  177.2  
 0.650  0.40153  176.8  
 0.700  0.40727  176.8  
 0.750  0.40792  176.4  
 0.800  0.40773  176.1  
 0.850  0.40384  176.1  
 0.900  0.40212  175.7  
 0.950  0.40666  175.5  
 1.000  0.40618  175.3  
 1.050  0.40910  174.9  
 1.100  0.40654  174.9  
 1.150  0.40339  174.6  
 1.200  0.40751  174.5  
 1.250  0.40829  174.3  
 1.300  0.40824  174.0  
 1.350  0.40701  173.9  
 1.400  0.40501  173.6  
 1.450  0.40910  173.4  
 1.500  0.40832  173.2  
 1.550  0.40842  172.9  
 1.600  0.40528  172.8  
 1.650  0.40216  172.5  
 1.700  0.40480  172.3  
 1.750  0.40659  172.2  
 1.800  0.40833  171.8  
 1.850  0.40619  171.7  
 1.900  0.40443  171.4  
 1.950  0.40737  171.2  
 2.000  0.40715  170.9  
 2.050  0.40703  170.7  
 2.100  0.40325  170.6  
 2.150  0.40162  170.3  
 2.200  0.40394  170.1  
 2.250  0.40618  169.8  
 2.300  0.40404  169.6  
 2.350  0.40233  169.5  
 2.400  0.39971  169.3  
 2.450  0.40177  169.1  
 2.500  0.40277  168.8  
 2.550  0.39638  167.7  
 2.600  0.39829  167.9  
 2.650  0.39854  166.6  
 2.700  0.39441  166.8  
 2.750  0.40141  166.9  
 2.800  0.40215  166.1  
 2.850  0.39944  166.3  
 2.900  0.39709  165.8  
 2.950  0.40181  165.4  
 3.000  0.39981  165.3  
 3.050  0.40114  165.5  
 3.100  0.40281  165.2  
 3.150  0.40043  164.5  
 3.200  0.39961  164.7  
 3.250  0.40678  164.5  
 3.300  0.40555  163.8  
 3.350  0.40237  164.0  
 3.400  0.40182  163.8  
 3.450  0.40391  163.1  
 3.500  0.40119  163.4  
 3.550  0.40672  163.3  
 3.600  0.40444  162.9  
 3.650  0.40131  162.6  
 3.700  0.40596  162.6  
 3.750  0.40721  162.2  
 3.800  0.40659  162.0  
 3.850  0.40505  162.2  
 3.900  0.40490  161.7  
 3.950  0.40645  161.5  
 4.000  0.40657  161.6  
 4.050  0.41049  161.2  
 4.100  0.40699  161.0  
 4.150  0.40377  160.8  
 4.200  0.41131  160.5  
 4.250  0.40486  160.2  
 4.300  0.40461  160.1  
 4.350  0.40668  160.4  
 4.400  0.40378  159.8  
 4.450  0.40936  159.7  
 4.500  0.40781  159.6  
 4.550  0.41048  159.3  
 4.600  0.40807  159.4  
 4.650  0.40636  159.1  
 4.700  0.41183  158.5  
 4.750  0.40972  158.3  
 4.800  0.40747  158.2  
 4.850  0.40869  158.4  
 4.900  0.40627  157.9  
 4.950  0.41034  157.8  
 5.000  0.41380  157.6  
 5.050  0.40951  157.2  
 5.100  0.40981  157.4  
 5.150  0.40659  157.2  
 5.200  0.41346  156.7  
 5.250  0.41073  156.7  
 5.300  0.41214  156.4  
 5.350  0.41211  156.5  
 5.400  0.40926  156.5  
 5.450  0.41438  156.2  
 5.500  0.41700  155.7  
 5.550  0.41506  155.3  
 5.600  0.41325  155.5  
 5.650  0.41416  155.2  
 5.700  0.41563  154.3  
 5.750  0.41659  154.1  
 5.800  0.41421  154.2  
 5.850  0.41307  154.3  
 5.900  0.41387  154.1  
 5.950  0.41611  153.8  
 6.000  0.41988  153.4  
 6.050  0.41690  153.2  
 6.100  0.41765  153.3  
 6.150  0.41534  153.0  
 6.200  0.41914  152.7  
 6.250  0.41904  152.5  
 6.300  0.41973  152.2  
 6.350  0.41694  152.1  
 6.400  0.41846  152.1  
 6.450  0.42126  151.4  
 6.500  0.42109  150.9  
!
! (c) 1999  Infineon Technologies AG, Munich
