! Infineon Technologies  Discrete & RF Semiconductors
! BAT24-02LS
! Si Schottky Diode in TSSLP-2
! IF = 0.5 mA     
! S-Parameters:                                        July  2007
# GHz  S  MA  R  50
!  f          S11
! GHz     MAG     ANG
 0.050  0.35459    2.1  
 0.100  0.36382   -0.1  
 0.150  0.36401    1.0  
 0.200  0.36895   -0.9  
 0.250  0.37895   -1.3  
 0.300  0.36650   -0.5  
 0.350  0.35881   -2.6  
 0.400  0.35205   -2.5  
 0.450  0.35485   -3.2  
 0.500  0.36406   -3.4  
 0.550  0.35889   -2.9  
 0.600  0.34826   -5.2  
 0.650  0.34505   -4.7  
 0.700  0.35240   -6.2  
 0.750  0.35536   -6.0  
 0.800  0.35040   -5.3  
 0.850  0.34713   -7.5  
 0.900  0.34739   -6.7  
 0.950  0.34998   -7.5  
 1.000  0.35592   -7.8  
 1.050  0.34825   -7.3  
 1.100  0.33719   -9.3  
 1.150  0.33648   -8.6  
 1.200  0.34407   -9.9  
 1.250  0.35027  -10.3  
 1.300  0.34039   -9.8  
 1.350  0.33684  -11.4  
 1.400  0.32902  -10.6  
 1.450  0.33715  -11.7  
 1.500  0.34455  -12.1  
 1.550  0.34102  -11.5  
 1.600  0.33905  -13.1  
 1.650  0.33680  -12.8  
 1.700  0.35251  -13.8  
 1.750  0.35328  -14.4  
 1.800  0.34108  -13.8  
 1.850  0.33843  -15.3  
 1.900  0.33639  -14.9  
 1.950  0.33995  -16.0  
 2.000  0.35195  -15.9  
 2.050  0.34783  -15.4  
 2.100  0.34465  -17.1  
 2.150  0.34522  -17.1  
 2.200  0.34794  -17.7  
 2.250  0.36215  -17.8  
 2.300  0.35234  -17.7  
 2.350  0.35433  -19.6  
 2.400  0.35117  -19.4  
 2.450  0.35772  -19.7  
 2.500  0.36865  -19.7  
 2.550  0.38044  -16.9  
 2.600  0.36280  -19.2  
 2.650  0.35396  -14.8  
 2.700  0.37294  -16.6  
 2.750  0.37284  -18.2  
 2.800  0.36472  -16.4  
 2.850  0.36084  -19.1  
 2.900  0.36301  -17.5  
 2.950  0.35890  -17.7  
 3.000  0.37481  -18.0  
 3.050  0.37563  -19.8  
 3.100  0.34957  -20.6  
 3.150  0.35593  -18.5  
 3.200  0.36369  -20.7  
 3.250  0.36660  -21.7  
 3.300  0.35780  -20.2  
 3.350  0.36152  -22.5  
 3.400  0.35353  -22.7  
 3.450  0.36392  -21.7  
 3.500  0.37576  -23.7  
 3.550  0.36748  -24.4  
 3.600  0.35571  -24.5  
 3.650  0.35590  -24.5  
 3.700  0.36293  -26.0  
 3.750  0.36230  -25.7  
 3.800  0.36101  -25.4  
 3.850  0.35800  -28.2  
 3.900  0.34948  -27.5  
 3.950  0.35632  -27.8  
 4.000  0.36882  -29.1  
 4.050  0.35816  -29.3  
 4.100  0.35157  -29.7  
 4.150  0.35091  -29.9  
 4.200  0.35764  -30.4  
 4.250  0.36730  -29.7  
 4.300  0.36677  -30.5  
 4.350  0.36547  -33.3  
 4.400  0.34978  -32.1  
 4.450  0.36128  -33.8  
 4.500  0.36813  -34.1  
 4.550  0.36144  -33.8  
 4.600  0.35687  -36.1  
 4.650  0.35168  -35.9  
 4.700  0.35884  -36.0  
 4.750  0.36227  -35.7  
 4.800  0.36504  -36.2  
 4.850  0.36167  -39.3  
 4.900  0.35303  -38.3  
 4.950  0.35142  -40.3  
 5.000  0.36509  -40.0  
 5.050  0.35289  -39.2  
 5.100  0.36241  -41.8  
 5.150  0.34584  -42.2  
 5.200  0.35409  -42.2  
 5.250  0.36361  -42.3  
 5.300  0.35391  -42.3  
 5.350  0.35606  -45.1  
 5.400  0.34870  -45.3  
 5.450  0.35055  -46.4  
 5.500  0.35797  -44.9  
 5.550  0.35036  -44.1  
 5.600  0.35141  -46.5  
 5.650  0.34614  -46.7  
 5.700  0.34903  -45.0  
 5.750  0.36388  -44.9  
 5.800  0.35703  -46.2  
 5.850  0.35610  -47.9  
 5.900  0.35460  -48.6  
 5.950  0.34845  -49.2  
 6.000  0.36093  -48.2  
 6.050  0.35048  -48.8  
 6.100  0.35445  -51.0  
 6.150  0.34734  -51.2  
 6.200  0.35763  -51.4  
 6.250  0.36291  -51.8  
 6.300  0.35692  -51.3  
 6.350  0.35781  -52.9  
 6.400  0.35337  -53.4  
 6.450  0.34802  -52.6  
 6.500  0.35965  -51.9  
!
! (c) 1999  Infineon Technologies AG, Munich
