! Infineon Technologies  Discrete & RF Semiconductors
! BAT24-02LS
! Si Schottky Diode in TSSLP-2
! IF = 1 mA     
! S-Parameters:                                        July  2007
# GHz  S  MA  R  50
!  f          S11
! GHz     MAG     ANG
 0.050  0.05177  160.7  
 0.100  0.03501  174.2  
 0.150  0.03242  161.3  
 0.200  0.04059  175.3  
 0.250  0.03703  176.8  
 0.300  0.04571  170.8  
 0.350  0.04035 -179.0  
 0.400  0.04292  179.0  
 0.450  0.05276  179.6  
 0.500  0.05022  179.4  
 0.550  0.05274  175.8  
 0.600  0.05086 -175.2  
 0.650  0.04915 -179.0  
 0.700  0.05764 -174.8  
 0.750  0.05598 -176.7  
 0.800  0.05821  178.7  
 0.850  0.05328 -172.9  
 0.900  0.04992 -177.5  
 0.950  0.05765 -176.8  
 1.000  0.05349 -175.9  
 1.050  0.06219  179.1  
 1.100  0.06255 -175.3  
 1.150  0.05721 -177.7  
 1.200  0.06250 -175.4  
 1.250  0.06134 -174.6  
 1.300  0.06489 -178.1  
 1.350  0.06437 -174.0  
 1.400  0.06315 -177.6  
 1.450  0.06835 -176.0  
 1.500  0.06380 -174.4  
 1.550  0.06560 -177.8  
 1.600  0.06135 -173.0  
 1.650  0.05666 -173.6  
 1.700  0.05733 -171.1  
 1.750  0.05897 -170.0  
 1.800  0.06592 -176.1  
 1.850  0.06381 -171.7  
 1.900  0.06083 -173.3  
 1.950  0.06610 -172.7  
 2.000  0.06048 -171.8  
 2.050  0.06152 -175.0  
 2.100  0.05748 -168.9  
 2.150  0.05509 -169.0  
 2.200  0.05891 -169.4  
 2.250  0.05626 -168.7  
 2.300  0.05637 -170.7  
 2.350  0.05517 -163.3  
 2.400  0.05194 -163.6  
 2.450  0.05380 -164.4  
 2.500  0.04915 -161.6  
 2.550  0.03096 -175.1  
 2.600  0.04307 -167.1  
 2.650  0.04211  164.6  
 2.700  0.03080  176.5  
 2.750  0.04076 -175.7  
 2.800  0.04395  168.8  
 2.850  0.04250 -177.8  
 2.900  0.03589  172.6  
 2.950  0.04457  170.0  
 3.000  0.03423  173.9  
 3.050  0.03976 -176.4  
 3.100  0.05055  179.8  
 3.150  0.04271  168.1  
 3.200  0.04106 -179.5  
 3.250  0.05047 -179.8  
 3.300  0.05089  170.1  
 3.350  0.04598 -177.3  
 3.400  0.04730 -179.3  
 3.450  0.04568  172.3  
 3.500  0.03908 -171.0  
 3.550  0.05241 -177.1  
 3.600  0.05036 -177.9  
 3.650  0.04629 -177.9  
 3.700  0.05387 -175.4  
 3.750  0.05309 -179.0  
 3.800  0.05380  178.4  
 3.850  0.05608 -170.4  
 3.900  0.05626 -176.9  
 3.950  0.05636 -177.3  
 4.000  0.05439 -168.5  
 4.050  0.06401 -176.3  
 4.100  0.06015 -173.7  
 4.150  0.05517 -172.3  
 4.200  0.06462 -176.6  
 4.250  0.04990 -170.8  
 4.300  0.05320 -169.3  
 4.350  0.06206 -162.4  
 4.400  0.05776 -168.9  
 4.450  0.06555 -167.2  
 4.500  0.06228 -163.2  
 4.550  0.06637 -170.3  
 4.600  0.06927 -163.7  
 4.650  0.06651 -164.8  
 4.700  0.07152 -170.7  
 4.750  0.06621 -168.3  
 4.800  0.06437 -165.1  
 4.850  0.07463 -160.6  
 4.900  0.06983 -164.1  
 4.950  0.07990 -165.8  
 5.000  0.08063 -166.7  
 5.050  0.07439 -167.1  
 5.100  0.08057 -161.4  
 5.150  0.07993 -163.0  
 5.200  0.08544 -168.1  
 5.250  0.08058 -162.6  
 5.300  0.08322 -166.7  
 5.350  0.09028 -162.5  
 5.400  0.08897 -162.1  
 5.450  0.09619 -165.4  
 5.500  0.09326 -167.9  
 5.550  0.08861 -170.5  
 5.600  0.09294 -165.1  
 5.650  0.09410 -167.0  
 5.700  0.08919 -172.9  
 5.750  0.08457 -169.1  
 5.800  0.08891 -168.5  
 5.850  0.09185 -165.0  
 5.900  0.09469 -165.6  
 5.950  0.09868 -169.1  
 6.000  0.09809 -171.5  
 6.050  0.09732 -170.8  
 6.100  0.10306 -167.9  
 6.150  0.10019 -167.9  
 6.200  0.10398 -170.1  
 6.250  0.10241 -168.2  
 6.300  0.10229 -171.0  
 6.350  0.10234 -167.2  
 6.400  0.10591 -168.6  
 6.450  0.10579 -174.1  
 6.500  0.10154 -174.4  
!
! (c) 1999  Infineon Technologies AG, Munich
