! Infineon Technologies  Discrete & RF Semiconductors
! BAT24-02LS
! Si Schottky Diode in TSSLP-2
! VR = 0 V     
! S-Parameters:                                        July  2007
# GHz  S  MA  R  50
!  f          S11
! GHz     MAG     ANG
 0.050  0.99962   -0.4  
 0.100  0.99859   -0.6  
 0.150  0.99849   -0.9  
 0.200  0.99799   -1.3  
 0.250  0.99776   -1.6  
 0.300  0.99836   -1.9  
 0.350  0.99831   -2.2  
 0.400  0.99879   -2.5  
 0.450  0.99809   -2.9  
 0.500  0.99813   -3.2  
 0.550  0.99797   -3.5  
 0.600  0.99851   -3.8  
 0.650  0.99876   -4.1  
 0.700  0.99718   -4.5  
 0.750  0.99814   -4.8  
 0.800  0.99838   -5.1  
 0.850  0.99835   -5.4  
 0.900  0.99845   -5.8  
 0.950  0.99781   -6.1  
 1.000  0.99810   -6.4  
 1.050  0.99733   -6.8  
 1.100  0.99784   -7.1  
 1.150  0.99797   -7.4  
 1.200  0.99662   -7.7  
 1.250  0.99630   -8.0  
 1.300  0.99609   -8.4  
 1.350  0.99595   -8.7  
 1.400  0.99521   -9.0  
 1.450  0.99457   -9.2  
 1.500  0.99457   -9.6  
 1.550  0.99488   -9.8  
 1.600  0.99364  -10.1  
 1.650  0.99493  -10.4  
 1.700  0.99528  -10.7  
 1.750  0.99517  -11.1  
 1.800  0.99377  -11.4  
 1.850  0.99614  -11.7  
 1.900  0.99610  -12.0  
 1.950  0.99556  -12.4  
 2.000  0.99506  -12.7  
 2.050  0.99508  -13.0  
 2.100  0.99561  -13.2  
 2.150  0.99552  -13.6  
 2.200  0.99546  -13.9  
 2.250  0.99484  -14.2  
 2.300  0.99525  -14.6  
 2.350  0.99506  -14.9  
 2.400  0.99517  -15.2  
 2.450  0.99489  -15.5  
 2.500  0.99463  -15.8  
 2.550  0.99475  -16.1  
 2.600  0.99489  -16.4  
 2.650  0.99419  -16.7  
 2.700  0.99434  -17.0  
 2.750  0.99386  -17.4  
 2.800  0.99384  -17.7  
 2.850  0.99414  -18.0  
 2.900  0.99348  -18.3  
 2.950  0.99251  -18.7  
 3.000  0.99275  -18.9  
 3.050  0.99318  -19.3  
 3.100  0.99365  -19.6  
 3.150  0.99319  -19.9  
 3.200  0.99342  -20.2  
 3.250  0.99255  -20.6  
 3.300  0.99288  -20.9  
 3.350  0.99335  -21.2  
 3.400  0.99295  -21.6  
 3.450  0.99252  -21.9  
 3.500  0.99269  -22.2  
 3.550  0.99195  -22.6  
 3.600  0.99206  -22.9  
 3.650  0.99208  -23.3  
 3.700  0.99106  -23.6  
 3.750  0.99069  -23.9  
 3.800  0.99080  -24.2  
 3.850  0.99097  -24.6  
 3.900  0.99064  -24.9  
 3.950  0.98957  -25.3  
 4.000  0.98897  -25.6  
 4.050  0.98847  -25.9  
 4.100  0.98862  -26.2  
 4.150  0.98808  -26.5  
 4.200  0.98650  -26.9  
 4.250  0.98612  -27.1  
 4.300  0.98668  -27.4  
 4.350  0.98674  -27.8  
 4.400  0.98670  -28.1  
 4.450  0.98509  -28.4  
 4.500  0.98584  -28.7  
 4.550  0.98525  -29.0  
 4.600  0.98576  -29.3  
 4.650  0.98565  -29.7  
 4.700  0.98487  -30.0  
 4.750  0.98506  -30.3  
 4.800  0.98560  -30.6  
 4.850  0.98548  -30.9  
 4.900  0.98508  -31.3  
 4.950  0.98489  -31.6  
 5.000  0.98305  -32.0  
 5.050  0.98301  -32.3  
 5.100  0.98216  -32.6  
 5.150  0.98317  -32.9  
 5.200  0.98114  -33.2  
 5.250  0.98118  -33.5  
 5.300  0.98119  -33.8  
 5.350  0.98076  -34.1  
 5.400  0.98214  -34.4  
 5.450  0.98092  -34.8  
 5.500  0.97917  -35.1  
 5.550  0.97962  -35.4  
 5.600  0.98024  -35.6  
 5.650  0.97989  -36.0  
 5.700  0.97906  -36.3  
 5.750  0.97686  -36.7  
 5.800  0.97883  -36.9  
 5.850  0.97958  -37.2  
 5.900  0.97933  -37.6  
 5.950  0.97909  -37.9  
 6.000  0.97761  -38.2  
 6.050  0.97828  -38.5  
 6.100  0.97823  -38.8  
 6.150  0.97863  -39.1  
 6.200  0.97777  -39.5  
 6.250  0.97715  -39.8  
 6.300  0.97728  -40.1  
 6.350  0.97773  -40.4  
 6.400  0.97765  -40.7  
 6.450  0.97737  -41.1  
 6.500  0.97625  -41.4  
!
! (c) 1999  Infineon Technologies AG, Munich
