! Infineon Technologies  Discrete & RF Semiconductors
! BAT24-02LS
! Si Schottky Diode in TSSLP-2
! IF = 50 mA     
! S-Parameters:                                        July  2007
# GHz  S  MA  R  50
!  f          S11
! GHz     MAG     ANG
 0.050  0.69859  179.6  
 0.100  0.69831  179.4  
 0.150  0.69844  179.2  
 0.200  0.69801  178.9  
 0.250  0.69783  178.6  
 0.300  0.69776  178.4  
 0.350  0.69728  178.1  
 0.400  0.69693  177.8  
 0.450  0.69727  177.6  
 0.500  0.69673  177.3  
 0.550  0.69634  177.1  
 0.600  0.69594  176.8  
 0.650  0.69572  176.6  
 0.700  0.69585  176.4  
 0.750  0.69575  176.1  
 0.800  0.69540  175.9  
 0.850  0.69521  175.6  
 0.900  0.69501  175.4  
 0.950  0.69506  175.1  
 1.000  0.69490  174.9  
 1.050  0.69491  174.7  
 1.100  0.69472  174.4  
 1.150  0.69465  174.2  
 1.200  0.69456  173.9  
 1.250  0.69424  173.7  
 1.300  0.69421  173.4  
 1.350  0.69428  173.2  
 1.400  0.69418  173.0  
 1.450  0.69410  172.7  
 1.500  0.69412  172.5  
 1.550  0.69381  172.2  
 1.600  0.69374  171.9  
 1.650  0.69351  171.7  
 1.700  0.69356  171.5  
 1.750  0.69329  171.2  
 1.800  0.69335  171.0  
 1.850  0.69337  170.8  
 1.900  0.69325  170.5  
 1.950  0.69325  170.2  
 2.000  0.69284  170.0  
 2.050  0.69275  169.8  
 2.100  0.69248  169.5  
 2.150  0.69239  169.3  
 2.200  0.69239  169.0  
 2.250  0.69240  168.8  
 2.300  0.69212  168.6  
 2.350  0.69220  168.3  
 2.400  0.69199  168.1  
 2.450  0.69196  167.8  
 2.500  0.69173  167.6  
 2.550  0.69188  167.4  
 2.600  0.69164  167.1  
 2.650  0.69161  166.9  
 2.700  0.69168  166.7  
 2.750  0.69150  166.4  
 2.800  0.69168  166.2  
 2.850  0.69155  166.0  
 2.900  0.69145  165.7  
 2.950  0.69159  165.5  
 3.000  0.69152  165.3  
 3.050  0.69148  165.0  
 3.100  0.69150  164.8  
 3.150  0.69154  164.5  
 3.200  0.69156  164.3  
 3.250  0.69157  164.1  
 3.300  0.69156  163.8  
 3.350  0.69136  163.6  
 3.400  0.69144  163.3  
 3.450  0.69172  163.1  
 3.500  0.69142  162.8  
 3.550  0.69149  162.6  
 3.600  0.69142  162.4  
 3.650  0.69128  162.1  
 3.700  0.69143  161.9  
 3.750  0.69133  161.7  
 3.800  0.69118  161.4  
 3.850  0.69137  161.2  
 3.900  0.69129  160.9  
 3.950  0.69104  160.7  
 4.000  0.69115  160.4  
 4.050  0.69113  160.2  
 4.100  0.69079  160.0  
 4.150  0.69112  159.7  
 4.200  0.69085  159.5  
 4.250  0.69087  159.3  
 4.300  0.69101  159.0  
 4.350  0.69113  158.8  
 4.400  0.69088  158.5  
 4.450  0.69147  158.3  
 4.500  0.69095  158.0  
 4.550  0.69093  157.8  
 4.600  0.69099  157.5  
 4.650  0.69092  157.3  
 4.700  0.69072  157.0  
 4.750  0.69085  156.8  
 4.800  0.69088  156.5  
 4.850  0.69050  156.3  
 4.900  0.69040  156.1  
 4.950  0.69016  155.8  
 5.000  0.68978  155.6  
 5.050  0.68971  155.3  
 5.100  0.68940  155.1  
 5.150  0.68920  154.8  
 5.200  0.68941  154.6  
 5.250  0.68918  154.4  
 5.300  0.68886  154.2  
 5.350  0.68905  153.9  
 5.400  0.68875  153.7  
 5.450  0.68865  153.4  
 5.500  0.68855  153.2  
 5.550  0.68860  153.0  
 5.600  0.68836  152.8  
 5.650  0.68865  152.5  
 5.700  0.68822  152.3  
 5.750  0.68990  152.1  
 5.800  0.68786  151.8  
 5.850  0.68807  151.6  
 5.900  0.68778  151.3  
 5.950  0.68782  151.1  
 6.000  0.68768  150.9  
 6.050  0.68742  150.6  
 6.100  0.68749  150.4  
 6.150  0.68730  150.2  
 6.200  0.68715  149.9  
 6.250  0.68723  149.7  
 6.300  0.68706  149.5  
 6.350  0.68673  149.3  
 6.400  0.68693  149.0  
 6.450  0.68694  148.8  
 6.500  0.68708  148.6  
!
! (c) 1999  Infineon Technologies AG, Munich
