! Infineon Technologies  Discrete & RF Semiconductors
! BAT24-02LS
! Si Schottky Diode in TSSLP-2
! IF = 8 mA     
! S-Parameters:                                        July  2007
# GHz  S  MA  R  50
!  f          S11
! GHz     MAG     ANG
 0.050  0.69731  179.6  
 0.100  0.69645  179.4  
 0.150  0.69645  179.2  
 0.200  0.69635  178.9  
 0.250  0.69648  178.7  
 0.300  0.69641  178.4  
 0.350  0.69573  178.2  
 0.400  0.69569  177.9  
 0.450  0.69605  177.7  
 0.500  0.69558  177.4  
 0.550  0.69539  177.1  
 0.600  0.69498  176.9  
 0.650  0.69464  176.7  
 0.700  0.69495  176.4  
 0.750  0.69497  176.2  
 0.800  0.69470  175.9  
 0.850  0.69424  175.7  
 0.900  0.69409  175.4  
 0.950  0.69436  175.2  
 1.000  0.69428  175.0  
 1.050  0.69445  174.7  
 1.100  0.69408  174.5  
 1.150  0.69391  174.2  
 1.200  0.69396  174.0  
 1.250  0.69383  173.7  
 1.300  0.69362  173.5  
 1.350  0.69377  173.3  
 1.400  0.69356  173.0  
 1.450  0.69371  172.8  
 1.500  0.69378  172.5  
 1.550  0.69340  172.3  
 1.600  0.69317  172.0  
 1.650  0.69296  171.8  
 1.700  0.69307  171.5  
 1.750  0.69293  171.3  
 1.800  0.69293  171.1  
 1.850  0.69297  170.8  
 1.900  0.69292  170.6  
 1.950  0.69291  170.3  
 2.000  0.69261  170.1  
 2.050  0.69255  169.8  
 2.100  0.69232  169.6  
 2.150  0.69207  169.3  
 2.200  0.69217  169.1  
 2.250  0.69233  168.9  
 2.300  0.69191  168.6  
 2.350  0.69207  168.4  
 2.400  0.69172  168.1  
 2.450  0.69163  167.9  
 2.500  0.69158  167.7  
 2.550  0.69111  167.4  
 2.600  0.69111  167.2  
 2.650  0.69125  166.9  
 2.700  0.69071  166.7  
 2.750  0.69110  166.4  
 2.800  0.69126  166.2  
 2.850  0.69106  166.0  
 2.900  0.69083  165.7  
 2.950  0.69128  165.5  
 3.000  0.69100  165.2  
 3.050  0.69095  165.0  
 3.100  0.69127  164.8  
 3.150  0.69117  164.5  
 3.200  0.69081  164.3  
 3.250  0.69138  164.1  
 3.300  0.69136  163.8  
 3.350  0.69098  163.6  
 3.400  0.69121  163.3  
 3.450  0.69132  163.1  
 3.500  0.69095  162.8  
 3.550  0.69138  162.6  
 3.600  0.69134  162.4  
 3.650  0.69092  162.1  
 3.700  0.69136  161.9  
 3.750  0.69130  161.7  
 3.800  0.69098  161.4  
 3.850  0.69121  161.2  
 3.900  0.69120  160.9  
 3.950  0.69087  160.7  
 4.000  0.69099  160.5  
 4.050  0.69126  160.2  
 4.100  0.69101  160.0  
 4.150  0.69091  159.7  
 4.200  0.69119  159.5  
 4.250  0.69086  159.3  
 4.300  0.69072  159.0  
 4.350  0.69119  158.8  
 4.400  0.69084  158.5  
 4.450  0.69146  158.3  
 4.500  0.69107  158.1  
 4.550  0.69122  157.8  
 4.600  0.69108  157.6  
 4.650  0.69097  157.3  
 4.700  0.69107  157.1  
 4.750  0.69094  156.8  
 4.800  0.69077  156.6  
 4.850  0.69078  156.3  
 4.900  0.69041  156.1  
 4.950  0.69039  155.8  
 5.000  0.69013  155.6  
 5.050  0.68997  155.3  
 5.100  0.68965  155.1  
 5.150  0.68929  154.9  
 5.200  0.68977  154.6  
 5.250  0.68932  154.4  
 5.300  0.68940  154.2  
 5.350  0.68949  153.9  
 5.400  0.68904  153.8  
 5.450  0.68905  153.5  
 5.500  0.68930  153.3  
 5.550  0.68915  153.0  
 5.600  0.68888  152.8  
 5.650  0.68930  152.5  
 5.700  0.68875  152.3  
 5.750  0.68627  151.9  
 5.800  0.68843  151.8  
 5.850  0.68855  151.6  
 5.900  0.68841  151.4  
 5.950  0.68844  151.1  
 6.000  0.68844  150.9  
 6.050  0.68801  150.7  
 6.100  0.68815  150.4  
 6.150  0.68786  150.2  
 6.200  0.68787  150.0  
 6.250  0.68785  149.7  
 6.300  0.68789  149.5  
 6.350  0.68736  149.3  
 6.400  0.68766  149.0  
 6.450  0.68778  148.8  
 6.500  0.68792  148.6  
!
! (c) 1999  Infineon Technologies AG, Munich
