! Infineon Technologies  Discrete & RF Semiconductors
! BAT24-02LS
! Si Schottky Diode in TSSLP-2
! IF = 100 mA     
! S-Parameters:                                        July  2007
# GHz  S  MA  R  50
!  f          S11
! GHz     MAG     ANG
 0.050  0.60423  178.5  
 0.100  0.59484  177.6  
 0.150  0.58744  177.2  
 0.200  0.58200  177.0  
 0.250  0.57807  176.8  
 0.300  0.57505  176.6  
 0.350  0.57234  176.4  
 0.400  0.57067  176.3  
 0.450  0.56896  176.1  
 0.500  0.56755  176.0  
 0.550  0.56620  175.8  
 0.600  0.56530  175.6  
 0.650  0.56467  175.5  
 0.700  0.56378  175.3  
 0.750  0.56341  175.1  
 0.800  0.56286  174.9  
 0.850  0.56227  174.7  
 0.900  0.56175  174.5  
 0.950  0.56142  174.3  
 1.000  0.56107  174.1  
 1.050  0.56080  174.0  
 1.100  0.56041  173.7  
 1.150  0.56008  173.5  
 1.200  0.56023  173.3  
 1.250  0.55982  173.1  
 1.300  0.55959  172.9  
 1.350  0.55956  172.7  
 1.400  0.55933  172.5  
 1.450  0.55943  172.3  
 1.500  0.55944  172.1  
 1.550  0.55911  171.9  
 1.600  0.55878  171.7  
 1.650  0.55889  171.4  
 1.700  0.55873  171.2  
 1.750  0.55856  171.0  
 1.800  0.55861  170.8  
 1.850  0.55857  170.6  
 1.900  0.55864  170.3  
 1.950  0.55848  170.1  
 2.000  0.55831  169.9  
 2.050  0.55819  169.7  
 2.100  0.55809  169.5  
 2.150  0.55822  169.3  
 2.200  0.55808  169.0  
 2.250  0.55825  168.8  
 2.300  0.55805  168.6  
 2.350  0.55809  168.4  
 2.400  0.55832  168.2  
 2.450  0.55790  167.9  
 2.500  0.55799  167.7  
 2.550  0.55802  167.5  
 2.600  0.55803  167.3  
 2.650  0.55817  167.1  
 2.700  0.55824  166.8  
 2.750  0.55819  166.6  
 2.800  0.55835  166.4  
 2.850  0.55820  166.2  
 2.900  0.55809  165.9  
 2.950  0.55835  165.7  
 3.000  0.55825  165.5  
 3.050  0.55842  165.3  
 3.100  0.55830  165.0  
 3.150  0.55816  164.8  
 3.200  0.55834  164.6  
 3.250  0.55855  164.3  
 3.300  0.55852  164.1  
 3.350  0.55826  163.9  
 3.400  0.55844  163.7  
 3.450  0.55878  163.5  
 3.500  0.55853  163.2  
 3.550  0.55890  163.0  
 3.600  0.55860  162.8  
 3.650  0.55873  162.5  
 3.700  0.55876  162.3  
 3.750  0.55897  162.1  
 3.800  0.55875  161.9  
 3.850  0.55897  161.6  
 3.900  0.55886  161.4  
 3.950  0.55889  161.2  
 4.000  0.55901  160.9  
 4.050  0.55911  160.7  
 4.100  0.55895  160.5  
 4.150  0.55892  160.3  
 4.200  0.55922  160.1  
 4.250  0.55906  159.8  
 4.300  0.55936  159.6  
 4.350  0.55923  159.4  
 4.400  0.55916  159.1  
 4.450  0.55938  158.9  
 4.500  0.55940  158.7  
 4.550  0.55926  158.5  
 4.600  0.55926  158.2  
 4.650  0.55935  158.0  
 4.700  0.55933  157.7  
 4.750  0.55964  157.5  
 4.800  0.55960  157.3  
 4.850  0.55959  157.0  
 4.900  0.55934  156.8  
 4.950  0.55937  156.6  
 5.000  0.55910  156.4  
 5.050  0.55906  156.1  
 5.100  0.55903  155.9  
 5.150  0.55873  155.7  
 5.200  0.55902  155.5  
 5.250  0.55885  155.3  
 5.300  0.55875  155.1  
 5.350  0.55895  154.8  
 5.400  0.55876  154.6  
 5.450  0.55874  154.4  
 5.500  0.55897  154.2  
 5.550  0.55895  154.0  
 5.600  0.55894  153.7  
 5.650  0.55926  153.5  
 5.700  0.55883  153.3  
 5.750  0.55744  153.1  
 5.800  0.55894  152.8  
 5.850  0.55913  152.6  
 5.900  0.55899  152.4  
 5.950  0.55907  152.2  
 6.000  0.55900  152.0  
 6.050  0.55887  151.8  
 6.100  0.55911  151.5  
 6.150  0.55890  151.3  
 6.200  0.55900  151.1  
 6.250  0.55903  150.9  
 6.300  0.55903  150.6  
 6.350  0.55884  150.4  
 6.400  0.55919  150.2  
 6.450  0.55915  150.0  
 6.500  0.55937  149.8  
!
! (c) 1999  Infineon Technologies AG, Munich
