! Infineon Technologies  Discrete & RF Semiconductors
! BAT24-02LS
! Si Schottky Diode in TSSLP-2
! IF = 4 mA     
! S-Parameters:                                        July  2007
# GHz  S  MA  R  50
!  f          S11
! GHz     MAG     ANG
 0.050  0.60194  179.6  
 0.100  0.60056  179.4  
 0.150  0.59993  179.1  
 0.200  0.60107  178.9  
 0.250  0.60158  178.6  
 0.300  0.60159  178.4  
 0.350  0.60023  178.1  
 0.400  0.60007  177.9  
 0.450  0.60122  177.6  
 0.500  0.60133  177.4  
 0.550  0.60087  177.1  
 0.600  0.60010  176.9  
 0.650  0.59949  176.7  
 0.700  0.60062  176.5  
 0.750  0.60092  176.2  
 0.800  0.60072  175.9  
 0.850  0.59963  175.7  
 0.900  0.59902  175.5  
 0.950  0.60009  175.2  
 1.000  0.60006  175.0  
 1.050  0.60054  174.8  
 1.100  0.59963  174.5  
 1.150  0.59874  174.3  
 1.200  0.60004  174.0  
 1.250  0.60011  173.8  
 1.300  0.59979  173.6  
 1.350  0.59956  173.3  
 1.400  0.59887  173.1  
 1.450  0.60007  172.8  
 1.500  0.59992  172.6  
 1.550  0.59974  172.4  
 1.600  0.59885  172.1  
 1.650  0.59824  171.9  
 1.700  0.59865  171.7  
 1.750  0.59908  171.4  
 1.800  0.59942  171.2  
 1.850  0.59910  171.0  
 1.900  0.59861  170.7  
 1.950  0.59916  170.5  
 2.000  0.59901  170.2  
 2.050  0.59888  170.0  
 2.100  0.59807  169.7  
 2.150  0.59755  169.5  
 2.200  0.59800  169.3  
 2.250  0.59876  169.0  
 2.300  0.59811  168.8  
 2.350  0.59755  168.5  
 2.400  0.59699  168.3  
 2.450  0.59708  168.1  
 2.500  0.59776  167.8  
 2.550  0.59564  167.4  
 2.600  0.59634  167.3  
 2.650  0.59648  166.8  
 2.700  0.59496  166.7  
 2.750  0.59712  166.5  
 2.800  0.59739  166.2  
 2.850  0.59650  166.0  
 2.900  0.59578  165.7  
 2.950  0.59708  165.4  
 3.000  0.59657  165.2  
 3.050  0.59675  165.1  
 3.100  0.59728  164.8  
 3.150  0.59677  164.5  
 3.200  0.59629  164.4  
 3.250  0.59846  164.1  
 3.300  0.59791  163.8  
 3.350  0.59715  163.6  
 3.400  0.59730  163.4  
 3.450  0.59785  163.1  
 3.500  0.59703  162.9  
 3.550  0.59851  162.7  
 3.600  0.59791  162.5  
 3.650  0.59709  162.2  
 3.700  0.59822  162.0  
 3.750  0.59884  161.7  
 3.800  0.59827  161.5  
 3.850  0.59815  161.3  
 3.900  0.59798  161.1  
 3.950  0.59830  160.8  
 4.000  0.59861  160.6  
 4.050  0.59956  160.4  
 4.100  0.59855  160.1  
 4.150  0.59766  159.9  
 4.200  0.59969  159.7  
 4.250  0.59796  159.4  
 4.300  0.59789  159.2  
 4.350  0.59832  159.0  
 4.400  0.59772  158.7  
 4.450  0.59923  158.5  
 4.500  0.59880  158.3  
 4.550  0.59924  158.0  
 4.600  0.59875  157.8  
 4.650  0.59855  157.6  
 4.700  0.59956  157.3  
 4.750  0.59937  157.0  
 4.800  0.59865  156.8  
 4.850  0.59892  156.6  
 4.900  0.59819  156.4  
 4.950  0.59915  156.1  
 5.000  0.59967  155.9  
 5.050  0.59861  155.6  
 5.100  0.59843  155.5  
 5.150  0.59742  155.2  
 5.200  0.59924  155.0  
 5.250  0.59846  154.8  
 5.300  0.59860  154.5  
 5.350  0.59881  154.4  
 5.400  0.59756  154.2  
 5.450  0.59889  153.9  
 5.500  0.59990  153.7  
 5.550  0.59944  153.4  
 5.600  0.59872  153.2  
 5.650  0.59935  153.0  
 5.700  0.59931  152.6  
 5.750  0.59689  152.3  
 5.800  0.59871  152.2  
 5.850  0.59868  152.0  
 5.900  0.59863  151.8  
 5.950  0.59911  151.6  
 6.000  0.60010  151.3  
 6.050  0.59911  151.1  
 6.100  0.59951  150.9  
 6.150  0.59881  150.7  
 6.200  0.59957  150.4  
 6.250  0.59953  150.2  
 6.300  0.59988  150.0  
 6.350  0.59868  149.7  
 6.400  0.59943  149.5  
 6.450  0.60006  149.2  
 6.500  0.60020  148.9  
!
! (c) 1999  Infineon Technologies AG, Munich
