! Filename:       BFR93AD.S2P                                Version:   2.0
! NXP part #: BFR93A                                     Date: May 1990
! Bias condition: Vce=5V, Ic=30mA
!
#  MHz  S  MA  R  50
! Freq       S11            S21            S12            S22     !GUM [dB]
   40    .499  -44.2  42.811  149.9    .011   74.3    .853  -23.4 !    39.5
  100    .406  -88.8  28.622  124.9    .023   62.9    .606  -41.3 !    31.9
  200    .369 -127.6  17.097  107.9    .035   64.2    .392  -49.9 !    26.0
  300    .359 -144.5  11.934   99.3    .045   66.9    .301  -51.1 !    22.5
  400    .348 -153.5   9.173   94.3    .057   68.3    .257  -51.5 !    20.1
  500    .367 -160.2   7.512   89.4    .070   70.5    .232  -50.9 !    18.4
  600    .367 -167.0   6.297   86.7    .081   70.8    .218  -50.7 !    16.8
  700    .341 -168.3   5.464   83.7    .093   72.8    .210  -50.7 !    15.5
  800    .361 -175.7   4.781   81.3    .105   72.0    .207  -49.9 !    14.4
  900    .348 -177.4   4.317   78.8    .117   72.3    .204  -50.4 !    13.4
 1000    .349  176.8   3.861   76.0    .128   72.3    .198  -49.9 !    12.5
 1200    .352  173.4   3.286   71.2    .152   71.5    .189  -50.8 !    11.1
 1400    .371  168.3   2.852   66.7    .174   70.2    .182  -53.4 !     9.9
 1600    .358  166.1   2.548   63.4    .198   69.2    .183  -54.4 !     8.9
 1800    .345  158.4   2.273   59.3    .220   68.0    .185  -56.0 !     7.8
 2000    .352  154.7   2.126   56.0    .242   66.5    .175  -56.0 !     7.3
 2200    .367  147.1   1.932   52.6    .264   66.2    .152  -58.2 !     6.4
 2400    .390  148.6   1.810   49.5    .288   64.1    .141  -67.2 !     6.0
 2600    .391  146.3   1.694   46.1    .307   62.5    .142  -74.4 !     5.4
 2800    .388  142.6   1.628   43.3    .329   61.4    .142  -78.4 !     5.0
 3000    .407  136.2   1.537   40.6    .352   59.2    .129  -80.1 !     4.6